date Tue Aug 11 10:00:00.000 2026
base hex  timestamps absolute
internal events logged
0.000000 1 100 Rx d 8 7A 68 83 88 00 00 00 00
0.000500 1 300 Rx d 8 28 23 78 01 DC 00 00 00
0.001000 1 200 Rx d 8 38 18 00 00 2A 00 00 00
0.001500 1 400 Rx d 8 00 00 F0 00 00 00 00 00
0.002000 1 500 Rx d 8 47 54 5C 80 00 00 00 00
0.050000 1 100 Rx d 8 7A 6B 83 88 00 00 00 00
0.050500 1 300 Rx d 8 98 23 7B 01 DC 00 00 00
0.100000 1 100 Rx d 8 7A 6E 83 88 00 00 00 00
0.100500 1 300 Rx d 8 08 24 7D 01 DD 00 00 00
0.101000 1 200 Rx d 8 9B 18 06 00 2B 00 00 00
0.101500 1 400 Rx d 8 46 00 F7 00 34 00 00 00
0.150000 1 100 Rx d 8 7A 71 83 88 00 00 00 00
0.150500 1 300 Rx d 8 79 24 80 01 DD 00 00 00
0.200000 1 100 Rx d 8 7A 75 83 88 00 00 00 00
0.200500 1 300 Rx d 8 E9 24 82 01 DE 00 00 00
0.201000 1 200 Rx d 8 FF 18 0C 00 2C 00 00 00
0.201500 1 400 Rx d 8 8C 00 FF 00 69 00 00 00
0.250000 1 100 Rx d 8 7A 78 83 88 00 00 00 00
0.250500 1 300 Rx d 8 59 25 85 01 DF 00 00 00
0.252000 1 500 Rx d 8 47 54 62 80 00 00 00 00
0.300000 1 100 Rx d 8 7B 7B 83 88 00 00 00 00
0.300500 1 300 Rx d 8 C9 25 87 01 DF 00 00 00
0.301000 1 200 Rx d 8 63 19 12 00 2D 00 00 00
0.301500 1 400 Rx d 8 D2 00 06 01 9D 00 00 00
0.350000 1 100 Rx d 8 7B 7E 83 88 00 00 00 00
0.350500 1 300 Rx d 8 38 26 8A 01 E0 00 00 00
0.400000 1 100 Rx d 8 7B 81 83 89 00 00 00 00
0.400500 1 300 Rx d 8 A7 26 8C 01 E1 00 00 00
0.401000 1 200 Rx d 8 C7 19 18 00 2F 00 00 00
0.401500 1 400 Rx d 8 16 01 0E 01 D0 00 00 00
0.450000 1 100 Rx d 8 7B 84 83 89 00 00 00 00
0.450500 1 300 Rx d 8 16 27 8F 01 E1 00 00 00
0.500000 1 100 Rx d 8 7B 87 83 89 00 00 00 00
0.500500 1 300 Rx d 8 84 27 91 01 E2 00 00 00
0.501000 1 200 Rx d 8 2B 1A 1E 00 30 00 00 00
0.501500 1 400 Rx d 8 5A 01 15 01 02 01 00 00
0.502000 1 500 Rx d 8 48 54 67 80 00 00 00 00
0.550000 1 100 Rx d 8 7B 8A 83 89 00 00 00 00
0.550500 1 300 Rx d 8 F2 27 94 01 E3 00 00 00
0.600000 1 100 Rx d 8 7B 8C 84 89 00 00 00 00
0.600500 1 300 Rx d 8 5F 28 96 01 E3 00 00 00
0.601000 1 200 Rx d 8 8E 1A 24 00 31 00 00 00
0.601500 1 400 Rx d 8 9C 01 1D 01 33 01 00 00
0.650000 1 100 Rx d 8 7B 8F 84 89 00 00 00 00
0.650500 1 300 Rx d 8 CC 28 99 01 E4 00 00 00
0.700000 1 100 Rx d 8 7B 92 84 89 00 00 00 00
0.700500 1 300 Rx d 8 38 29 9B 01 E5 00 00 00
0.701000 1 200 Rx d 8 F1 1A 2A 00 32 00 00 00
0.701500 1 400 Rx d 8 DD 01 24 01 62 01 00 00
0.750000 1 100 Rx d 8 7B 94 84 89 00 00 00 00
0.750500 1 300 Rx d 8 A4 29 9E 01 E5 00 00 00
0.752000 1 500 Rx d 8 48 54 6D 80 00 00 00 00
0.800000 1 100 Rx d 8 7B 97 84 89 00 00 00 00
0.800500 1 300 Rx d 8 0E 2A A0 01 E6 00 00 00
0.801000 1 200 Rx d 8 54 1B 30 00 33 00 00 00
0.801500 1 400 Rx d 8 1B 02 2B 01 8E 01 00 00
0.850000 1 100 Rx d 8 7C 99 84 89 00 00 00 00
0.850500 1 300 Rx d 8 78 2A A2 01 E7 00 00 00
0.900000 1 100 Rx d 8 7C 9C 84 89 00 00 00 00
0.900500 1 300 Rx d 8 E1 2A A5 01 E7 00 00 00
0.901000 1 200 Rx d 8 B6 1B 36 00 34 00 00 00
0.901500 1 400 Rx d 8 57 02 32 01 B9 01 00 00
0.950000 1 100 Rx d 8 7C 9E 84 89 00 00 00 00
0.950500 1 300 Rx d 8 4A 2B A7 01 E8 00 00 00
1.000000 1 100 Rx d 8 7C A0 84 89 00 00 00 00
1.000500 1 300 Rx d 8 B1 2B A9 01 E9 00 00 00
1.001000 1 200 Rx d 8 18 1C 3C 00 35 00 00 00
1.001500 1 400 Rx d 8 91 02 39 01 E1 01 00 00
1.002000 1 500 Rx d 8 48 55 72 81 00 00 00 00
1.010000 1 7E0 Rx d 8 03 22 F1 90 00 00 00 00
1.014000 1 7E8 Rx d 8 05 62 F1 90 00 50 00 00
1.050000 1 100 Rx d 8 7C A2 84 89 00 00 00 00
1.050500 1 300 Rx d 8 17 2C AC 01 E9 00 00 00
1.100000 1 100 Rx d 8 7C A4 84 8A 00 00 00 00
1.100500 1 300 Rx d 8 7D 2C AE 01 EA 00 00 00
1.101000 1 200 Rx d 8 7A 1C 42 00 37 00 00 00
1.101500 1 400 Rx d 8 C8 02 40 01 06 02 00 00
1.150000 1 100 Rx d 8 7C A6 84 8A 00 00 00 00
1.150500 1 300 Rx d 8 E1 2C B0 01 EB 00 00 00
1.200000 1 100 Rx d 8 7C A8 84 8A 00 00 00 00
1.200500 1 300 Rx d 8 44 2D B2 01 EB 00 00 00
1.201000 1 200 Rx d 8 DB 1C 48 00 38 00 00 00
1.201500 1 400 Rx d 8 FD 02 47 01 28 02 00 00
1.250000 1 100 Rx d 8 7C AA 84 8A 00 00 00 00
1.250500 1 300 Rx d 8 A7 2D B4 01 EC 00 00 00
1.252000 1 500 Rx d 8 48 55 77 81 00 00 00 00
1.300000 1 100 Rx d 8 7C AB 84 8A 00 00 00 00
1.300500 1 300 Rx d 8 08 2E B6 01 ED 00 00 00
1.301000 1 200 Rx d 8 3C 1D 4E 00 39 00 00 00
1.301500 1 400 Rx d 8 2E 03 4E 01 47 02 00 00
1.350000 1 100 Rx d 8 7D AD 84 8A 00 00 00 00
1.350500 1 300 Rx d 8 67 2E B9 01 ED 00 00 00
1.400000 1 100 Rx d 8 7D AE 84 8A 00 00 00 00
1.400500 1 300 Rx d 8 C6 2E BB 01 EE 00 00 00
1.401000 1 200 Rx d 8 9C 1D 54 00 3A 00 00 00
1.401500 1 400 Rx d 8 5B 03 55 01 62 02 00 00
1.450000 1 100 Rx d 8 7D AF 84 8A 00 00 00 00
1.450500 1 300 Rx d 8 23 2F BD 01 EF 00 00 00
1.500000 1 100 Rx d 8 7D B0 84 8A 00 00 00 00
1.500500 1 300 Rx d 8 7F 2F BE 01 EF 00 00 00
1.501000 1 200 Rx d 8 FB 1D 5A 00 3B 00 00 00
1.501500 1 400 Rx d 8 86 03 5B 01 7A 02 00 00
1.502000 1 500 Rx d 8 49 55 7C 81 00 00 00 00
1.550000 1 100 Rx d 8 7D B1 84 8A 00 00 00 00
1.550500 1 300 Rx d 8 DA 2F C0 01 F0 00 00 00
1.600000 1 100 Rx d 8 7D B2 84 8A 00 00 00 00
1.600500 1 300 Rx d 8 33 30 C2 01 F1 00 00 00
1.601000 1 200 Rx d 8 5A 1E 60 00 3C 00 00 00
1.601500 1 400 Rx d 8 AC 03 61 01 8F 02 00 00
1.650000 1 100 Rx d 8 7D B3 84 8A 00 00 00 00
1.650500 1 300 Rx d 8 8A 30 C4 01 F1 00 00 00
1.700000 1 100 Rx d 8 7D B3 85 8A 00 00 00 00
1.700500 1 300 Rx d 8 E1 30 C6 01 F2 00 00 00
1.701000 1 200 Rx d 8 B8 1E 66 00 3D 00 00 00
1.701500 1 400 Rx d 8 CF 03 68 01 A0 02 00 00
1.750000 1 100 Rx d 8 7D B4 85 8A 00 00 00 00
1.750500 1 300 Rx d 8 35 31 C7 01 F3 00 00 00
1.752000 1 500 Rx d 8 49 55 81 81 00 00 00 00
1.800000 1 100 Rx d 8 7D B4 85 8A 00 00 00 00
1.800500 1 300 Rx d 8 88 31 C9 01 F3 00 00 00
1.801000 1 200 Rx d 8 16 1F 6C 00 3E 00 00 00
1.801500 1 400 Rx d 8 ED 03 6E 01 AD 02 00 00
1.850000 1 100 Rx d 8 7D B4 85 8A 00 00 00 00
1.850500 1 300 Rx d 8 DA 31 CB 01 F4 00 00 00
1.900000 1 100 Rx d 8 7E B4 85 8B 00 00 00 00
1.900500 1 300 Rx d 8 2A 32 CC 01 F4 00 00 00
1.901000 1 200 Rx d 8 72 1F 72 00 3F 00 00 00
1.901500 1 400 Rx d 8 08 04 73 01 B5 02 00 00
1.950000 1 100 Rx d 8 7E B4 85 8B 00 00 00 00
1.950500 1 300 Rx d 8 78 32 CE 01 F5 00 00 00
2.000000 1 100 Rx d 8 7E B4 85 8B 00 00 00 00
2.000500 1 300 Rx d 8 C4 32 CF 01 F6 00 00 00
2.001000 1 200 Rx d 8 CE 1F 78 00 40 00 00 00
2.001500 1 400 Rx d 8 1E 04 79 01 BA 02 00 00
2.002000 1 500 Rx d 8 49 55 86 81 00 00 00 00
2.050000 1 100 Rx d 8 7E B3 85 8B 00 00 00 00
2.050500 1 300 Rx d 8 0F 33 D1 01 F6 00 00 00
2.100000 1 100 Rx d 8 7E B3 85 8B 00 00 00 00
2.100500 1 300 Rx d 8 58 33 D2 01 F7 00 00 00
2.101000 1 200 Rx d 8 29 20 7E 00 41 00 00 00
2.101500 1 400 Rx d 8 30 04 7E 01 BB 02 00 00
2.150000 1 100 Rx d 8 7E B2 85 8B 00 00 00 00
2.150500 1 300 Rx d 8 9F 33 D3 01 F8 00 00 00
2.200000 1 100 Rx d 8 7E B1 85 8B 00 00 00 00
2.200500 1 300 Rx d 8 E5 33 D5 01 F8 00 00 00
2.201000 1 200 Rx d 8 83 20 84 00 41 00 00 00
2.201500 1 400 Rx d 8 3D 04 84 01 B8 02 00 00
2.250000 1 100 Rx d 8 7E B1 85 8B 00 00 00 00
2.250500 1 300 Rx d 8 28 34 D6 01 F9 00 00 00
2.252000 1 500 Rx d 8 49 55 8B 81 00 00 00 00
2.300000 1 100 Rx d 8 7E AF 85 8B 00 00 00 00
2.300500 1 300 Rx d 8 6A 34 D7 01 F9 00 00 00
2.301000 1 200 Rx d 8 DC 20 8A 00 42 00 00 00
2.301500 1 400 Rx d 8 46 04 89 01 B1 02 00 00
2.350000 1 100 Rx d 8 7E AE 85 8B 00 00 00 00
2.350500 1 300 Rx d 8 AA 34 D8 01 FA 00 00 00
2.400000 1 100 Rx d 8 7E AD 85 8B 00 00 00 00
2.400500 1 300 Rx d 8 E7 34 D9 01 FB 00 00 00
2.401000 1 200 Rx d 8 35 21 90 00 43 00 00 00
2.401500 1 400 Rx d 8 4B 04 8D 01 A6 02 00 00
2.450000 1 100 Rx d 8 7F AC 85 8B 00 00 00 00
2.450500 1 300 Rx d 8 23 35 DA 01 FB 00 00 00
2.500000 1 100 Rx d 8 7F AA 85 8B 00 00 00 00
2.500500 1 300 Rx d 8 5D 35 DB 01 FC 00 00 00
2.501000 1 200 Rx d 8 8C 21 96 00 44 00 00 00
2.501500 1 400 Rx d 8 4B 04 92 01 97 02 00 00
2.502000 1 500 Rx d 8 4A 56 8F 82 00 00 00 00
2.550000 1 100 Rx d 8 7F A9 85 8B 00 00 00 00
2.550500 1 300 Rx d 8 95 35 DC 01 FC 00 00 00
2.600000 1 100 Rx d 8 7F A7 85 8B 00 00 00 00
2.600500 1 300 Rx d 8 CB 35 DC 01 FD 00 00 00
2.601000 1 200 Rx d 8 E2 21 9C 00 45 00 00 00
2.601500 1 400 Rx d 8 46 04 96 01 85 02 00 00
2.650000 1 100 Rx d 8 7F A5 85 8B 00 00 00 00
2.650500 1 300 Rx d 8 FE 35 DD 01 FE 00 00 00
2.700000 1 100 Rx d 8 7F A3 85 8B 00 00 00 00
2.700500 1 300 Rx d 8 30 36 DE 01 FE 00 00 00
2.701000 1 200 Rx d 8 37 22 A2 00 45 00 00 00
2.701500 1 400 Rx d 8 3D 04 9A 01 6E 02 00 00
2.750000 1 100 Rx d 8 7F A1 85 8B 00 00 00 00
2.750500 1 300 Rx d 8 5F 36 DE 01 FF 00 00 00
2.752000 1 500 Rx d 8 4A 56 93 82 00 00 00 00
2.800000 1 100 Rx d 8 7F 9F 86 8C 00 00 00 00
2.800500 1 300 Rx d 8 8D 36 DF 01 FF 00 00 00
2.801000 1 200 Rx d 8 8B 22 A8 00 46 00 00 00
2.801500 1 400 Rx d 8 30 04 9E 01 54 02 00 00
2.850000 1 100 Rx d 8 7F 9D 86 8C 00 00 00 00
2.850500 1 300 Rx d 8 B8 36 DF 01 00 01 00 00
2.900000 1 100 Rx d 8 7F 9A 86 8C 00 00 00 00
2.900500 1 300 Rx d 8 E1 36 E0 01 01 01 00 00
2.901000 1 200 Rx d 8 DE 22 AE 00 47 00 00 00
2.901500 1 400 Rx d 8 1E 04 A2 01 37 02 00 00
2.950000 1 100 Rx d 8 7F 98 86 8C 00 00 00 00
2.950500 1 300 Rx d 8 07 37 E0 01 01 01 00 00
3.000000 1 100 Rx d 8 80 95 86 8C 00 00 00 00
3.000500 1 300 Rx d 8 2C 37 E0 01 02 01 00 00
3.001000 1 200 Rx d 8 30 23 B4 00 47 00 00 00
3.001500 1 400 Rx d 8 08 04 A5 01 16 02 00 00
3.002000 1 500 Rx d 8 4A 56 97 82 00 00 00 00
3.050000 1 100 Rx d 8 80 93 86 8C 00 00 00 00
3.050500 1 300 Rx d 8 4E 37 E1 01 02 01 00 00
3.100000 1 100 Rx d 8 80 90 86 8C 00 00 00 00
3.100500 1 300 Rx d 8 6E 37 E1 01 03 01 00 00
3.101000 1 200 Rx d 8 80 23 BA 00 48 00 00 00
3.101500 1 400 Rx d 8 EE 03 A8 01 F2 01 00 00
3.150000 1 100 Rx d 8 80 8E 86 8C 00 00 00 00
3.150500 1 300 Rx d 8 8C 37 E1 01 04 01 00 00
3.200000 1 100 Rx d 8 80 8B 86 8C 00 00 00 00
3.200500 1 300 Rx d 8 A8 37 E1 01 04 01 00 00
3.201000 1 200 Rx d 8 D0 23 C0 00 49 00 00 00
3.201500 1 400 Rx d 8 CF 03 AB 01 CC 01 00 00
3.250000 1 100 Rx d 8 80 88 86 8C 00 00 00 00
3.250500 1 300 Rx d 8 C1 37 E1 01 05 01 00 00
3.252000 1 500 Rx d 8 4A 56 9B 82 00 00 00 00
3.300000 1 100 Rx d 8 80 85 86 8C 00 00 00 00
3.300500 1 300 Rx d 8 D8 37 E1 01 05 01 00 00
3.301000 1 200 Rx d 8 1E 24 C6 00 49 00 00 00
3.301500 1 400 Rx d 8 AC 03 AD 01 A2 01 00 00
3.350000 1 100 Rx d 8 80 82 86 8C 00 00 00 00
3.350500 1 300 Rx d 8 ED 37 E1 01 06 01 00 00
3.400000 1 100 Rx d 8 80 7F 86 8C 00 00 00 00
3.400500 1 300 Rx d 8 FF 37 E1 01 06 01 00 00
3.401000 1 200 Rx d 8 6A 24 CC 00 4A 00 00 00
3.401500 1 400 Rx d 8 86 03 B0 01 77 01 00 00
3.450000 1 100 Rx d 8 80 7C 86 8C 00 00 00 00
3.450500 1 300 Rx d 8 10 38 E0 01 07 01 00 00
3.500000 1 100 Rx d 8 80 79 86 8C 00 00 00 00
3.500500 1 300 Rx d 8 1D 38 E0 01 08 01 00 00
3.501000 1 200 Rx d 8 B5 24 D2 00 4A 00 00 00
3.501500 1 400 Rx d 8 5C 03 B2 01 49 01 00 00
3.502000 1 500 Rx d 8 4B 56 9E 82 00 00 00 00
3.550000 1 100 Rx d 8 81 76 86 8C 00 00 00 00
3.550500 1 300 Rx d 8 29 38 DF 01 08 01 00 00
3.600000 1 100 Rx d 8 81 73 86 8C 00 00 00 00
3.600500 1 300 Rx d 8 32 38 DF 01 09 01 00 00
3.601000 1 200 Rx d 8 FF 24 D8 00 4B 00 00 00
3.601500 1 400 Rx d 8 2E 03 B3 01 19 01 00 00
3.650000 1 100 Rx d 8 81 70 86 8C 00 00 00 00
3.650500 1 300 Rx d 8 39 38 DF 01 09 01 00 00
3.700000 1 100 Rx d 8 81 6C 86 8C 00 00 00 00
3.700500 1 300 Rx d 8 3D 38 DE 01 0A 01 00 00
3.701000 1 200 Rx d 8 48 25 DE 00 4B 00 00 00
3.701500 1 400 Rx d 8 FD 02 B5 01 E8 00 00 00
3.750000 1 100 Rx d 8 81 69 86 8C 00 00 00 00
3.750500 1 300 Rx d 8 3F 38 DD 01 0A 01 00 00
3.752000 1 500 Rx d 8 4B 56 A1 82 00 00 00 00
3.800000 1 100 Rx d 8 81 66 86 8C 00 00 00 00
3.800500 1 300 Rx d 8 3F 38 DD 01 0B 01 00 00
3.801000 1 200 Rx d 8 8F 25 E4 00 4B 00 00 00
3.801500 1 400 Rx d 8 C9 02 B6 01 B5 00 00 00
3.850000 1 100 Rx d 8 81 63 86 8C 00 00 00 00
3.850500 1 300 Rx d 8 3C 38 DC 01 0B 01 00 00
3.900000 1 100 Rx d 8 81 60 86 8C 00 00 00 00
3.900500 1 300 Rx d 8 38 38 DB 01 0C 01 00 00
3.901000 1 200 Rx d 8 D4 25 EA 00 4C 00 00 00
3.901500 1 400 Rx d 8 92 02 B7 01 82 00 00 00
3.950000 1 100 Rx d 8 81 5D 87 8C 00 00 00 00
3.950500 1 300 Rx d 8 30 38 DA 01 0C 01 00 00
4.000000 1 100 Rx d 8 81 5A 87 8C 00 00 00 00
4.000500 1 300 Rx d 8 27 38 D9 01 0D 01 00 00
4.001000 1 200 Rx d 8 18 26 F0 00 4C 00 00 00
4.001500 1 400 Rx d 8 58 02 B7 01 4D 00 00 00
4.002000 1 500 Rx d 8 4B 57 A4 83 00 00 00 00
4.050000 1 100 Rx d 8 81 56 87 8D 00 00 00 00
4.050500 1 300 Rx d 8 1B 38 D8 01 0D 01 00 00
4.100000 1 100 Rx d 8 81 53 87 8D 00 00 00 00
4.100500 1 300 Rx d 8 0D 38 D7 01 0E 01 00 00
4.101000 1 200 Rx d 8 5B 26 F6 00 4C 00 00 00
4.101500 1 400 Rx d 8 1C 02 B7 01 18 00 00 00
4.150000 1 100 Rx d 8 82 50 87 8D 00 00 00 00
4.150500 1 300 Rx d 8 FC 37 D6 01 0F 01 00 00
4.200000 1 100 Rx d 8 82 4D 87 8D 00 00 00 00
4.200500 1 300 Rx d 8 E9 37 D5 01 0F 01 00 00
4.201000 1 200 Rx d 8 9C 26 FC 00 4C 00 00 00
4.201500 1 400 Rx d 8 DD 01 B7 01 E4 FF 00 00
4.250000 1 100 Rx d 8 82 4A 87 8D 00 00 00 00
4.250500 1 300 Rx d 8 D4 37 D4 01 10 01 00 00
4.252000 1 500 Rx d 8 4B 57 A6 83 00 00 00 00
4.300000 1 100 Rx d 8 82 48 87 8D 00 00 00 00
4.300500 1 300 Rx d 8 BC 37 D2 01 10 01 00 00
4.301000 1 200 Rx d 8 DB 26 02 01 4D 00 00 00
4.301500 1 400 Rx d 8 9D 01 B7 01 AF FF 00 00
4.350000 1 100 Rx d 8 82 45 87 8D 00 00 00 00
4.350500 1 300 Rx d 8 A3 37 D1 01 11 01 00 00
4.400000 1 100 Rx d 8 82 42 87 8D 00 00 00 00
4.400500 1 300 Rx d 8 86 37 CF 01 11 01 00 00
4.401000 1 200 Rx d 8 19 27 08 01 4D 00 00 00
4.401500 1 400 Rx d 8 5B 01 B7 01 7B FF 00 00
4.450000 1 100 Rx d 8 82 3F 87 8D 00 00 00 00
4.450500 1 300 Rx d 8 68 37 CE 01 12 01 00 00
4.500000 1 100 Rx d 8 82 3D 87 8D 00 00 00 00
4.500500 1 300 Rx d 8 48 37 CD 01 12 01 00 00
4.501000 1 200 Rx d 8 55 27 0E 01 4D 00 00 00
4.501500 1 400 Rx d 8 17 01 B6 01 47 FF 00 00
4.502000 1 500 Rx d 8 4C 57 A8 83 00 00 00 00
4.550000 1 100 Rx d 8 82 3A 87 8D 00 00 00 00
4.550500 1 300 Rx d 8 25 37 CB 01 13 01 00 00
4.600000 1 100 Rx d 8 82 38 87 8D 00 00 00 00
4.600500 1 300 Rx d 8 00 37 C9 01 13 01 00 00
4.601000 1 200 Rx d 8 8F 27 14 01 4D 00 00 00
4.601500 1 400 Rx d 8 D2 00 B5 01 15 FF 00 00
4.650000 1 100 Rx d 8 82 35 87 8D 00 00 00 00
4.650500 1 300 Rx d 8 D8 36 C8 01 13 01 00 00
4.700000 1 100 Rx d 8 82 33 87 8D 00 00 00 00
4.700500 1 300 Rx d 8 AF 36 C6 01 14 01 00 00
4.701000 1 200 Rx d 8 C8 27 1A 01 4D 00 00 00
4.701500 1 400 Rx d 8 8D 00 B3 01 E4 FE 00 00
4.750000 1 100 Rx d 8 83 31 87 8D 00 00 00 00
4.750500 1 300 Rx d 8 83 36 C4 01 14 01 00 00
4.752000 1 500 Rx d 8 4C 57 A9 83 00 00 00 00
4.800000 1 100 Rx d 8 83 2E 87 8D 00 00 00 00
4.800500 1 300 Rx d 8 56 36 C2 01 15 01 00 00
4.801000 1 200 Rx d 8 FF 27 20 01 4D 00 00 00
4.801500 1 400 Rx d 8 47 00 B1 01 B4 FE 00 00
4.850000 1 100 Rx d 8 83 2C 87 8D 00 00 00 00
4.850500 1 300 Rx d 8 26 36 C1 01 15 01 00 00
4.900000 1 100 Rx d 8 83 2B 87 8D 00 00 00 00
4.900500 1 300 Rx d 8 F4 35 BF 01 16 01 00 00
4.901000 1 200 Rx d 8 34 28 26 01 4D 00 00 00
4.901500 1 400 Rx d 8 00 00 AF 01 86 FE 00 00
4.950000 1 100 Rx d 8 83 29 87 8D 00 00 00 00
4.950500 1 300 Rx d 8 C0 35 BD 01 16 01 00 00
5.000000 1 100 Rx d 8 83 27 87 8D 00 00 00 00
5.000500 1 300 Rx d 8 8A 35 BB 01 17 01 00 00
5.001000 1 200 Rx d 8 67 28 2C 01 4D 00 00 00
5.001500 1 400 Rx d 8 BB FF AD 01 5B FE 00 00
5.002000 1 500 Rx d 8 4C 57 AB 83 00 00 00 00
5.050000 1 100 Rx d 8 83 25 87 8D 00 00 00 00
5.050500 1 300 Rx d 8 51 35 B9 01 17 01 00 00
5.100000 1 100 Rx d 8 83 24 88 8D 00 00 00 00
5.100500 1 300 Rx d 8 17 35 B7 01 18 01 00 00
5.101000 1 200 Rx d 8 99 28 32 01 4D 00 00 00
5.101500 1 400 Rx d 8 74 FF AB 01 32 FE 00 00
5.150000 1 100 Rx d 8 83 23 88 8D 00 00 00 00
5.150500 1 300 Rx d 8 DB 34 B5 01 18 01 00 00
5.200000 1 100 Rx d 8 83 21 88 8D 00 00 00 00
5.200500 1 300 Rx d 8 9D 34 B3 01 18 01 00 00
5.201000 1 200 Rx d 8 C8 28 38 01 4D 00 00 00
5.201500 1 400 Rx d 8 2F FF A8 01 0B FE 00 00
5.250000 1 100 Rx d 8 83 20 88 8D 00 00 00 00
5.250500 1 300 Rx d 8 5D 34 B0 01 19 01 00 00
5.252000 1 500 Rx d 8 4C 57 AB 83 00 00 00 00
5.300000 1 100 Rx d 8 83 1F 88 8D 00 00 00 00
5.300500 1 300 Rx d 8 1B 34 AE 01 19 01 00 00
5.301000 1 200 Rx d 8 F6 28 3E 01 4C 00 00 00
5.301500 1 400 Rx d 8 EA FE A5 01 E8 FD 00 00
5.350000 1 100 Rx d 8 84 1E 88 8D 00 00 00 00
5.350500 1 300 Rx d 8 D7 33 AC 01 1A 01 00 00
5.400000 1 100 Rx d 8 84 1E 88 8D 00 00 00 00
5.400500 1 300 Rx d 8 91 33 AA 01 1A 01 00 00
5.401000 1 200 Rx d 8 22 29 44 01 4C 00 00 00
5.401500 1 400 Rx d 8 A7 FE A1 01 C7 FD 00 00
5.450000 1 100 Rx d 8 84 1D 88 8D 00 00 00 00
5.450500 1 300 Rx d 8 4A 33 A8 01 1B 01 00 00
5.500000 1 100 Rx d 8 84 1D 88 8D 00 00 00 00
5.500500 1 300 Rx d 8 00 33 A5 01 1B 01 00 00
5.501000 1 200 Rx d 8 4D 29 4A 01 4C 00 00 00
5.501500 1 400 Rx d 8 64 FE 9E 01 AA FD 00 00
5.502000 1 500 Rx d 8 4C 57 AC 84 00 00 00 00
5.550000 1 100 Rx d 8 84 1C 88 8D 00 00 00 00
5.550500 1 300 Rx d 8 B5 32 A3 01 1B 01 00 00
5.600000 1 100 Rx d 8 84 1C 88 8D 00 00 00 00
5.600500 1 300 Rx d 8 68 32 A1 01 1C 01 00 00
5.601000 1 200 Rx d 8 75 29 50 01 4B 00 00 00
5.601500 1 400 Rx d 8 24 FE 9A 01 90 FD 00 00
5.650000 1 100 Rx d 8 84 1C 88 8D 00 00 00 00
5.650500 1 300 Rx d 8 1A 32 9E 01 1C 01 00 00
5.700000 1 100 Rx d 8 84 1C 88 8D 00 00 00 00
5.700500 1 300 Rx d 8 C9 31 9C 01 1D 01 00 00
5.701000 1 200 Rx d 8 9B 29 56 01 4B 00 00 00
5.701500 1 400 Rx d 8 E5 FD 96 01 7A FD 00 00
5.750000 1 100 Rx d 8 84 1C 88 8D 00 00 00 00
5.750500 1 300 Rx d 8 78 31 99 01 1D 01 00 00
5.752000 1 500 Rx d 8 4D 58 AC 84 00 00 00 00
5.800000 1 100 Rx d 8 84 1D 88 8D 00 00 00 00
5.800500 1 300 Rx d 8 24 31 97 01 1D 01 00 00
5.801000 1 200 Rx d 8 C0 29 5C 01 4B 00 00 00
5.801500 1 400 Rx d 8 A9 FD 92 01 68 FD 00 00
5.850000 1 100 Rx d 8 84 1D 88 8D 00 00 00 00
5.850500 1 300 Rx d 8 CF 30 94 01 1E 01 00 00
5.900000 1 100 Rx d 8 84 1E 88 8D 00 00 00 00
5.900500 1 300 Rx d 8 79 30 92 01 1E 01 00 00
5.901000 1 200 Rx d 8 E2 29 62 01 4A 00 00 00
5.901500 1 400 Rx d 8 6F FD 8D 01 59 FD 00 00
5.950000 1 100 Rx d 8 84 1E 88 8D 00 00 00 00
5.950500 1 300 Rx d 8 21 30 8F 01 1E 01 00 00
6.000000 1 100 Rx d 8 85 1F 88 8D 00 00 00 00
6.000500 1 300 Rx d 8 C7 2F 8D 02 1F 01 00 00
6.001000 1 200 Rx d 8 03 2A 68 01 4A 00 00 00
6.001500 1 400 Rx d 8 38 FD 88 01 4E FD 00 00
6.002000 1 500 Rx d 8 4D 58 AC 84 00 00 00 00
6.010000 1 7E0 Rx d 8 03 22 F4 05 00 00 00 00
6.014000 1 7E8 Rx d 8 04 62 F4 05 33 00 00 00
6.050000 1 100 Rx d 8 85 20 88 8D 00 00 00 00
6.050500 1 300 Rx d 8 6C 2F 8A 02 1F 01 00 00
6.100000 1 100 Rx d 8 85 21 88 8D 00 00 00 00
6.100500 1 300 Rx d 8 10 2F 88 02 20 01 00 00
6.101000 1 200 Rx d 8 21 2A 6E 01 49 00 00 00
6.101500 1 400 Rx d 8 04 FD 83 01 47 FD 00 00
6.150000 1 100 Rx d 8 85 22 88 8D 00 00 00 00
6.150500 1 300 Rx d 8 B3 2E 85 02 20 01 00 00
6.200000 1 100 Rx d 8 85 24 88 8D 00 00 00 00
6.200500 1 300 Rx d 8 54 2E 83 02 20 01 00 00
6.201000 1 200 Rx d 8 3E 2A 74 01 49 00 00 00
6.201500 1 400 Rx d 8 D3 FC 7E 01 45 FD 00 00
6.250000 1 100 Rx d 8 85 25 88 8D 00 00 00 00
6.250500 1 300 Rx d 8 F4 2D 80 02 21 01 00 00
6.252000 1 500 Rx d 8 4D 58 AB 84 00 00 00 00
6.300000 1 100 Rx d 8 85 27 89 8D 00 00 00 00
6.300500 1 300 Rx d 8 93 2D 7E 02 21 01 00 00
6.301000 1 200 Rx d 8 58 2A 7A 01 48 00 00 00
6.301500 1 400 Rx d 8 A5 FC 79 01 46 FD 00 00
6.350000 1 100 Rx d 8 85 28 89 8D 00 00 00 00
6.350500 1 300 Rx d 8 30 2D 7B 02 21 01 00 00
6.400000 1 100 Rx d 8 85 2A 89 8D 00 00 00 00
6.400500 1 300 Rx d 8 CD 2C 78 02 22 01 00 00
6.401000 1 200 Rx d 8 71 2A 80 01 48 00 00 00
6.401500 1 400 Rx d 8 7B FC 73 01 4B FD 00 00
6.450000 1 100 Rx d 8 85 2C 89 8D 00 00 00 00
6.450500 1 300 Rx d 8 68 2C 76 02 22 01 00 00
6.500000 1 100 Rx d 8 85 2E 89 8D 00 00 00 00
6.500500 1 300 Rx d 8 03 2C 73 02 22 01 00 00
6.501000 1 200 Rx d 8 87 2A 86 01 47 00 00 00
6.501500 1 400 Rx d 8 54 FC 6D 01 54 FD 00 00
6.502000 1 500 Rx d 8 4D 58 AA 84 00 00 00 00
6.550000 1 100 Rx d 8 85 30 89 8D 00 00 00 00
6.550500 1 300 Rx d 8 9C 2B 71 02 22 01 00 00
6.600000 1 100 Rx d 8 85 32 89 8D 00 00 00 00
6.600500 1 300 Rx d 8 34 2B 6E 02 23 01 00 00
6.601000 1 200 Rx d 8 9C 2A 8C 01 46 00 00 00
6.601500 1 400 Rx d 8 32 FC 67 01 61 FD 00 00
6.650000 1 100 Rx d 8 85 35 89 8D 00 00 00 00
6.650500 1 300 Rx d 8 CC 2A 6C 02 23 01 00 00
6.700000 1 100 Rx d 8 86 37 89 8D 00 00 00 00
6.700500 1 300 Rx d 8 63 2A 69 02 23 01 00 00
6.701000 1 200 Rx d 8 AE 2A 92 01 46 00 00 00
6.701500 1 400 Rx d 8 13 FC 61 01 72 FD 00 00
6.750000 1 100 Rx d 8 86 3A 89 8D 00 00 00 00
6.750500 1 300 Rx d 8 F9 29 67 02 24 01 00 00
6.752000 1 500 Rx d 8 4D 58 A8 84 00 00 00 00
6.800000 1 100 Rx d 8 86 3C 89 8D 00 00 00 00
6.800500 1 300 Rx d 8 8E 29 64 02 24 01 00 00
6.801000 1 200 Rx d 8 BF 2A 98 01 45 00 00 00
6.801500 1 400 Rx d 8 F8 FB 5B 01 87 FD 00 00
6.850000 1 100 Rx d 8 86 3F 89 8D 00 00 00 00
6.850500 1 300 Rx d 8 22 29 61 02 24 01 00 00
6.900000 1 100 Rx d 8 86 41 89 8D 00 00 00 00
6.900500 1 300 Rx d 8 B6 28 5F 02 25 01 00 00
6.901000 1 200 Rx d 8 CD 2A 9E 01 44 00 00 00
6.901500 1 400 Rx d 8 E2 FB 54 01 9F FD 00 00
6.950000 1 100 Rx d 8 86 44 89 8D 00 00 00 00
6.950500 1 300 Rx d 8 49 28 5C 02 25 01 00 00
7.000000 1 100 Rx d 8 86 47 89 8D 00 00 00 00
7.000500 1 300 Rx d 8 DC 27 5A 02 25 01 00 00
7.001000 1 200 Rx d 8 D9 2A A4 01 43 00 00 00
7.001500 1 400 Rx d 8 D0 FB 4E 01 BB FD 00 00
7.002000 1 500 Rx d 8 4E 58 A6 84 00 00 00 00
7.050000 1 100 Rx d 8 86 4A 89 8D 00 00 00 00
7.050500 1 300 Rx d 8 6E 27 58 02 25 01 00 00
7.100000 1 100 Rx d 8 86 4D 89 8D 00 00 00 00
7.100500 1 300 Rx d 8 00 27 55 02 26 01 00 00
7.101000 1 200 Rx d 8 E3 2A AA 01 42 00 00 00
7.101500 1 400 Rx d 8 C3 FB 47 01 DA FD 00 00
7.150000 1 100 Rx d 8 86 50 89 8D 00 00 00 00
7.150500 1 300 Rx d 8 91 26 53 02 26 01 00 00
7.200000 1 100 Rx d 8 86 53 89 8D 00 00 00 00
7.200500 1 300 Rx d 8 22 26 50 02 26 01 00 00
7.201000 1 200 Rx d 8 EB 2A B0 01 42 00 00 00
7.201500 1 400 Rx d 8 BA FB 40 01 FD FD 00 00
7.250000 1 100 Rx d 8 86 56 89 8D 00 00 00 00
7.250500 1 300 Rx d 8 B2 25 4E 02 26 01 00 00
7.252000 1 500 Rx d 8 4E 58 A4 85 00 00 00 00
7.300000 1 100 Rx d 8 86 59 89 8C 00 00 00 00
7.300500 1 300 Rx d 8 42 25 4C 02 27 01 00 00
7.301000 1 200 Rx d 8 F2 2A B6 01 41 00 00 00
7.301500 1 400 Rx d 8 B5 FB 39 01 22 FE 00 00
7.350000 1 100 Rx d 8 86 5C 89 8C 00 00 00 00
7.350500 1 300 Rx d 8 D2 24 49 02 27 01 00 00
7.400000 1 100 Rx d 8 87 5F 89 8C 00 00 00 00
7.400500 1 300 Rx d 8 62 24 47 02 27 01 00 00
7.401000 1 200 Rx d 8 F5 2A BC 01 40 00 00 00
7.401500 1 400 Rx d 8 B5 FB 32 01 4A FE 00 00
7.450000 1 100 Rx d 8 87 62 89 8C 00 00 00 00
7.450500 1 300 Rx d 8 F2 23 45 02 27 01 00 00
7.500000 1 100 Rx d 8 87 65 89 8C 00 00 00 00
7.500500 1 300 Rx d 8 81 23 42 02 27 01 00 00
7.501000 1 200 Rx d 8 F7 2A C2 01 3F 00 00 00
7.501500 1 400 Rx d 8 B9 FB 2B 01 74 FE 00 00
7.502000 1 500 Rx d 8 4E 58 A2 85 00 00 00 00
7.550000 1 100 Rx d 8 87 69 89 8C 00 00 00 00
7.550500 1 300 Rx d 8 11 23 40 02 28 01 00 00
7.600000 1 100 Rx d 8 87 6C 8A 8C 00 00 00 00
7.600500 1 300 Rx d 8 A0 22 3E 02 28 01 00 00
7.601000 1 200 Rx d 8 F7 2A C8 01 3E 00 00 00
7.601500 1 400 Rx d 8 C2 FB 23 01 A1 FE 00 00
7.650000 1 100 Rx d 8 87 6F 8A 8C 00 00 00 00
7.650500 1 300 Rx d 8 30 22 3C 02 28 01 00 00
7.700000 1 100 Rx d 8 87 72 8A 8C 00 00 00 00
7.700500 1 300 Rx d 8 BF 21 3A 02 28 01 00 00
7.701000 1 200 Rx d 8 F5 2A CE 01 3D 00 00 00
7.701500 1 400 Rx d 8 D0 FB 1C 01 D0 FE 00 00
7.750000 1 100 Rx d 8 87 75 8A 8C 00 00 00 00
7.750500 1 300 Rx d 8 4F 21 38 02 28 01 00 00
7.752000 1 500 Rx d 8 4E 59 9F 85 00 00 00 00
7.800000 1 100 Rx d 8 87 78 8A 8C 00 00 00 00
7.800500 1 300 Rx d 8 DF 20 36 02 29 01 00 00
7.801000 1 200 Rx d 8 F0 2A D4 01 3C 00 00 00
7.801500 1 400 Rx d 8 E2 FB 15 01 01 FF 00 00
7.850000 1 100 Rx d 8 87 7B 8A 8C 00 00 00 00
7.850500 1 300 Rx d 8 70 20 34 02 29 01 00 00
7.900000 1 100 Rx d 8 87 7E 8A 8C 00 00 00 00
7.900500 1 300 Rx d 8 00 20 32 02 29 01 00 00
7.901000 1 200 Rx d 8 EA 2A DA 01 3B 00 00 00
7.901500 1 400 Rx d 8 F8 FB 0D 01 33 FF 00 00
7.950000 1 100 Rx d 8 87 81 8A 8C 00 00 00 00
7.950500 1 300 Rx d 8 91 1F 30 02 29 01 00 00
8.000000 1 100 Rx d 8 87 84 8A 8C 00 00 00 00
8.000500 1 300 Rx d 8 22 1F 2E 02 29 01 00 00
8.001000 1 200 Rx d 8 E1 2A E0 01 3A 00 00 00
8.001500 1 400 Rx d 8 12 FC 06 01 66 FF 00 00
8.002000 1 500 Rx d 8 4E 59 9C 85 00 00 00 00
8.050000 1 100 Rx d 8 87 87 8A 8C 00 00 00 00
8.050500 1 300 Rx d 8 B4 1E 2C 02 29 01 00 00
8.100000 1 100 Rx d 8 87 8A 8A 8C 00 00 00 00
8.100500 1 300 Rx d 8 47 1E 2B 02 2A 01 00 00
8.101000 1 200 Rx d 8 D7 2A E6 01 39 00 00 00
8.101500 1 400 Rx d 8 31 FC FE 00 9A FF 00 00
8.150000 1 100 Rx d 8 88 8D 8A 8C 00 00 00 00
8.150500 1 300 Rx d 8 D9 1D 29 02 2A 01 00 00
8.200000 1 100 Rx d 8 88 90 8A 8C 00 00 00 00
8.200500 1 300 Rx d 8 6D 1D 27 02 2A 01 00 00
8.201000 1 200 Rx d 8 CA 2A EC 01 38 00 00 00
8.201500 1 400 Rx d 8 53 FC F7 00 CF FF 00 00
8.250000 1 100 Rx d 8 88 92 8A 8C 00 00 00 00
8.250500 1 300 Rx d 8 01 1D 26 02 2A 01 00 00
8.252000 1 500 Rx d 8 4E 59 98 85 00 00 00 00
8.300000 1 100 Rx d 8 88 95 8A 8C 00 00 00 00
8.300500 1 300 Rx d 8 96 1C 24 02 2A 01 00 00
8.301000 1 200 Rx d 8 BB 2A F2 01 37 00 00 00
8.301500 1 400 Rx d 8 7A FC F0 00 03 00 00 00
8.350000 1 100 Rx d 8 88 98 8A 8C 00 00 00 00
8.350500 1 300 Rx d 8 2B 1C 22 02 2A 01 00 00
8.400000 1 100 Rx d 8 88 9A 8A 8C 00 00 00 00
8.400500 1 300 Rx d 8 C1 1B 21 02 2A 01 00 00
8.401000 1 200 Rx d 8 AB 2A F8 01 36 00 00 00
8.401500 1 400 Rx d 8 A4 FC F0 00 38 00 00 00
8.450000 1 100 Rx d 8 88 9C 8A 8C 00 00 00 00
8.450500 1 300 Rx d 8 58 1B 20 02 2A 01 00 00
8.500000 1 100 Rx d 8 88 9F 8A 8C 00 00 00 00
8.500500 1 300 Rx d 8 F0 1A 1E 02 2B 01 00 00
8.501000 1 200 Rx d 8 98 2A FE 01 35 00 00 00
8.501500 1 400 Rx d 8 D1 FC F0 00 6C 00 00 00
8.502000 1 500 Rx d 8 4F 59 94 85 00 00 00 00
8.550000 1 100 Rx d 8 88 A1 8A 8B 00 00 00 00
8.550500 1 300 Rx d 8 89 1A 1D 02 2B 01 00 00
8.600000 1 100 Rx d 8 88 A3 8A 8B 00 00 00 00
8.600500 1 300 Rx d 8 23 1A 1C 02 2B 01 00 00
8.601000 1 200 Rx d 8 83 2A 04 02 34 00 00 00
8.601500 1 400 Rx d 8 02 FD F0 00 A0 00 00 00
8.650000 1 100 Rx d 8 88 A5 8A 8B 00 00 00 00
8.650500 1 300 Rx d 8 BE 19 1A 02 2B 01 00 00
8.700000 1 100 Rx d 8 88 A7 8A 8B 00 00 00 00
8.700500 1 300 Rx d 8 5A 19 19 02 2B 01 00 00
8.701000 1 200 Rx d 8 6C 2A 0A 02 32 00 00 00
8.701500 1 400 Rx d 8 37 FD F0 00 D4 00 00 00
8.750000 1 100 Rx d 8 88 A8 8A 8B 00 00 00 00
8.750500 1 300 Rx d 8 F7 18 18 02 2B 01 00 00
8.752000 1 500 Rx d 8 4F 59 90 85 00 00 00 00
8.800000 1 100 Rx d 8 88 AA 8A 8B 00 00 00 00
8.800500 1 300 Rx d 8 95 18 17 02 2B 01 00 00
8.801000 1 200 Rx d 8 53 2A 10 02 31 00 00 00
8.801500 1 400 Rx d 8 6E FD F0 00 05 01 00 00
8.850000 1 100 Rx d 8 88 AB 8A 8B 00 00 00 00
8.850500 1 300 Rx d 8 34 18 16 02 2B 01 00 00
8.900000 1 100 Rx d 8 88 AD 8A 8B 00 00 00 00
8.900500 1 300 Rx d 8 D4 17 15 02 2B 01 00 00
8.901000 1 200 Rx d 8 38 2A 16 02 30 00 00 00
8.901500 1 400 Rx d 8 A7 FD F0 00 36 01 00 00
8.950000 1 100 Rx d 8 88 AE 8B 8B 00 00 00 00
8.950500 1 300 Rx d 8 76 17 15 02 2B 01 00 00
9.000000 1 100 Rx d 8 89 AF 8B 8B 00 00 00 00
9.000500 1 300 Rx d 8 19 17 14 02 2B 01 00 00
9.001000 1 200 Rx d 8 1B 2A 1C 02 2F 00 00 00
9.001500 1 400 Rx d 8 E4 FD F0 00 64 01 00 00
9.002000 1 500 Rx d 8 4F 59 8C 85 00 00 00 00
9.050000 1 100 Rx d 8 89 B0 8B 8B 00 00 00 00
9.050500 1 300 Rx d 8 BD 16 13 02 2B 01 00 00
9.100000 1 100 Rx d 8 89 B1 8B 8B 00 00 00 00
9.100500 1 300 Rx d 8 63 16 12 02 2B 01 00 00
9.101000 1 200 Rx d 8 FC 29 22 02 2E 00 00 00
9.101500 1 400 Rx d 8 22 FE F0 00 91 01 00 00
9.150000 1 100 Rx d 8 89 B2 8B 8B 00 00 00 00
9.150500 1 300 Rx d 8 0A 16 12 02 2B 01 00 00
9.200000 1 100 Rx d 8 89 B3 8B 8B 00 00 00 00
9.200500 1 300 Rx d 8 B3 15 11 02 2B 01 00 00
9.201000 1 200 Rx d 8 DB 29 28 02 2D 00 00 00
9.201500 1 400 Rx d 8 63 FE F0 00 BB 01 00 00
9.250000 1 100 Rx d 8 89 B3 8B 8B 00 00 00 00
9.250500 1 300 Rx d 8 5D 15 11 02 2B 01 00 00
9.252000 1 500 Rx d 8 4F 59 87 86 00 00 00 00
9.300000 1 100 Rx d 8 89 B4 8B 8B 00 00 00 00
9.300500 1 300 Rx d 8 09 15 10 02 2B 01 00 00
9.301000 1 200 Rx d 8 B8 29 2E 02 2B 00 00 00
9.301500 1 400 Rx d 8 A5 FE F0 00 E3 01 00 00
9.350000 1 100 Rx d 8 89 B4 8B 8B 00 00 00 00
9.350500 1 300 Rx d 8 B6 14 10 02 2B 01 00 00
9.400000 1 100 Rx d 8 89 B4 8B 8B 00 00 00 00
9.400500 1 300 Rx d 8 65 14 10 02 2B 01 00 00
9.401000 1 200 Rx d 8 94 29 34 02 2A 00 00 00
9.401500 1 400 Rx d 8 E8 FE F0 00 08 02 00 00
9.450000 1 100 Rx d 8 89 B4 8B 8A 00 00 00 00
9.450500 1 300 Rx d 8 15 14 0F 02 2B 01 00 00
9.500000 1 100 Rx d 8 89 B4 8B 8A 00 00 00 00
9.500500 1 300 Rx d 8 C7 13 0F 02 2B 01 00 00
9.501000 1 200 Rx d 8 6D 29 3A 02 29 00 00 00
9.501500 1 400 Rx d 8 2D FF F0 00 2A 02 00 00
9.502000 1 500 Rx d 8 4F 59 83 86 00 00 00 00
9.550000 1 100 Rx d 8 89 B4 8B 8A 00 00 00 00
9.550500 1 300 Rx d 8 7B 13 0F 02 2B 01 00 00
9.600000 1 100 Rx d 8 89 B3 8B 8A 00 00 00 00
9.600500 1 300 Rx d 8 31 13 0F 02 2B 01 00 00
9.601000 1 200 Rx d 8 44 29 40 02 28 00 00 00
9.601500 1 400 Rx d 8 73 FF F0 00 49 02 00 00
9.650000 1 100 Rx d 8 89 B3 8B 8A 00 00 00 00
9.650500 1 300 Rx d 8 E8 12 0F 02 2B 01 00 00
9.700000 1 100 Rx d 8 89 B2 8B 8A 00 00 00 00
9.700500 1 300 Rx d 8 A1 12 0F 02 2B 01 00 00
9.701000 1 200 Rx d 8 1A 29 46 02 27 00 00 00
9.701500 1 400 Rx d 8 B9 FF F0 00 64 02 00 00
9.750000 1 100 Rx d 8 89 B1 8B 8A 00 00 00 00
9.750500 1 300 Rx d 8 5C 12 0F 02 2B 01 00 00
9.752000 1 500 Rx d 8 4F 59 7E 86 00 00 00 00
9.800000 1 100 Rx d 8 89 B0 8B 8A 00 00 00 00
9.800500 1 300 Rx d 8 19 12 0F 02 2B 01 00 00
9.801000 1 200 Rx d 8 ED 28 4C 02 26 00 00 00
9.801500 1 400 Rx d 8 FF FF F0 00 7C 02 00 00
9.850000 1 100 Rx d 8 89 AF 8B 8A 00 00 00 00
9.850500 1 300 Rx d 8 D8 11 10 02 2B 01 00 00
9.900000 1 100 Rx d 8 89 AE 8B 8A 00 00 00 00
9.900500 1 300 Rx d 8 99 11 10 02 2B 01 00 00
9.901000 1 200 Rx d 8 BF 28 52 02 24 00 00 00
9.901500 1 400 Rx d 8 45 00 F0 00 90 02 00 00
9.950000 1 100 Rx d 8 89 AD 8B 8A 00 00 00 00
9.950500 1 300 Rx d 8 5B 11 10 02 2B 01 00 00
10.000000 1 100 Rx d 8 8A AB 8B 8A 00 00 00 00
10.000500 1 300 Rx d 8 20 11 11 02 2B 01 00 00
10.001000 1 200 Rx d 8 8F 28 58 02 23 00 00 00
10.001500 1 400 Rx d 8 8B 00 F0 00 A1 02 00 00
10.002000 1 500 Rx d 8 4F 5A 78 86 00 00 00 00
10.050000 1 100 Rx d 8 8A AA 8B 8A 00 00 00 00
10.050500 1 300 Rx d 8 E6 10 11 02 2B 01 00 00
10.100000 1 100 Rx d 8 8A A8 8B 8A 00 00 00 00
10.100500 1 300 Rx d 8 AF 10 12 02 2B 01 00 00
10.101000 1 200 Rx d 8 5D 28 5E 02 22 00 00 00
10.101500 1 400 Rx d 8 D1 00 F0 00 AD 02 00 00
10.150000 1 100 Rx d 8 8A A7 8B 8A 00 00 00 00
10.150500 1 300 Rx d 8 7A 10 13 02 2B 01 00 00
10.200000 1 100 Rx d 8 8A A5 8B 8A 00 00 00 00
10.200500 1 300 Rx d 8 47 10 13 02 2B 01 00 00
10.201000 1 200 Rx d 8 29 28 64 02 21 00 00 00
10.201500 1 400 Rx d 8 15 01 F0 00 B6 02 00 00
10.250000 1 100 Rx d 8 8A A3 8B 89 00 00 00 00
10.250500 1 300 Rx d 8 15 10 14 02 2B 01 00 00
10.252000 1 500 Rx d 8 4F 5A 73 86 00 00 00 00
10.300000 1 100 Rx d 8 8A A1 8B 89 00 00 00 00
10.300500 1 300 Rx d 8 E6 0F 15 02 2B 01 00 00
10.301000 1 200 Rx d 8 F4 27 6A 02 20 00 00 00
10.301500 1 400 Rx d 8 59 01 F0 00 BB 02 00 00
10.350000 1 100 Rx d 8 8A 9F 8B 89 00 00 00 00
10.350500 1 300 Rx d 8 BA 0F 16 02 2B 01 00 00
10.400000 1 100 Rx d 8 8A 9C 8C 89 00 00 00 00
10.400500 1 300 Rx d 8 8F 0F 17 02 2A 01 00 00
10.401000 1 200 Rx d 8 BC 27 70 02 1F 00 00 00
10.401500 1 400 Rx d 8 9B 01 F0 00 BB 02 00 00
10.450000 1 100 Rx d 8 8A 9A 8C 89 00 00 00 00
10.450500 1 300 Rx d 8 66 0F 18 02 2A 01 00 00
10.500000 1 100 Rx d 8 8A 97 8C 89 00 00 00 00
10.500500 1 300 Rx d 8 40 0F 19 02 2A 01 00 00
10.501000 1 200 Rx d 8 83 27 76 02 1E 00 00 00
10.501500 1 400 Rx d 8 DC 01 F0 00 B8 02 00 00
10.502000 1 500 Rx d 8 50 5A 6E 86 00 00 00 00
10.550000 1 100 Rx d 8 8A 95 8C 89 00 00 00 00
10.550500 1 300 Rx d 8 1C 0F 1A 02 2A 01 00 00
10.600000 1 100 Rx d 8 8A 92 8C 89 00 00 00 00
10.600500 1 300 Rx d 8 FA 0E 1B 02 2A 01 00 00
10.601000 1 200 Rx d 8 49 27 7C 02 1D 00 00 00
10.601500 1 400 Rx d 8 1A 02 F0 00 B1 02 00 00
10.650000 1 100 Rx d 8 8A 90 8C 89 00 00 00 00
10.650500 1 300 Rx d 8 DA 0E 1C 02 2A 01 00 00
10.700000 1 100 Rx d 8 8A 8D 8C 89 00 00 00 00
10.700500 1 300 Rx d 8 BD 0E 1E 02 2A 01 00 00
10.701000 1 200 Rx d 8 0C 27 82 02 1C 00 00 00
10.701500 1 400 Rx d 8 56 02 F0 00 A5 02 00 00
10.750000 1 100 Rx d 8 8A 8A 8C 89 00 00 00 00
10.750500 1 300 Rx d 8 A2 0E 1F 02 2A 01 00 00
10.752000 1 500 Rx d 8 50 5A 68 86 00 00 00 00
10.800000 1 100 Rx d 8 8A 87 8C 89 00 00 00 00
10.800500 1 300 Rx d 8 89 0E 20 02 29 01 00 00
10.801000 1 200 Rx d 8 CE 26 88 02 1B 00 00 00
10.801500 1 400 Rx d 8 90 02 F0 00 96 02 00 00
10.850000 1 100 Rx d 8 8A 84 8C 89 00 00 00 00
10.850500 1 300 Rx d 8 72 0E 22 02 29 01 00 00
10.900000 1 100 Rx d 8 8A 81 8C 89 00 00 00 00
10.900500 1 300 Rx d 8 5E 0E 23 02 29 01 00 00
10.901000 1 200 Rx d 8 8F 26 8E 02 19 00 00 00
10.901500 1 400 Rx d 8 C7 02 F0 00 83 02 00 00
10.950000 1 100 Rx d 8 8A 7E 8C 88 00 00 00 00
10.950500 1 300 Rx d 8 4C 0E 25 02 29 01 00 00
11.000000 1 100 Rx d 8 8A 7B 8C 88 00 00 00 00
11.000500 1 300 Rx d 8 3C 0E 26 02 29 01 00 00
11.001000 1 200 Rx d 8 4D 26 94 02 18 00 00 00
11.001500 1 400 Rx d 8 FC 02 F0 00 6D 02 00 00
11.002000 1 500 Rx d 8 50 5A 63 86 00 00 00 00
11.010000 1 7E0 Rx d 8 03 19 02 FF 00 00 00 00
11.014000 1 7E8 Rx d 8 07 59 02 FF 12 34 52 0D
11.050000 1 100 Rx d 8 8A 78 8C 88 00 00 00 00
11.050500 1 300 Rx d 8 2F 0E 28 02 29 01 00 00
11.100000 1 100 Rx d 8 8A 75 8C 88 00 00 00 00
11.100500 1 300 Rx d 8 24 0E 2A 02 28 01 00 00
11.101000 1 200 Rx d 8 0B 26 9A 02 17 00 00 00
11.101500 1 400 Rx d 8 2D 03 F0 00 52 02 00 00
11.150000 1 100 Rx d 8 8B 72 8C 88 00 00 00 00
11.150500 1 300 Rx d 8 1B 0E 2B 02 28 01 00 00
11.200000 1 100 Rx d 8 8B 6F 8C 88 00 00 00 00
11.200500 1 300 Rx d 8 15 0E 2D 02 28 01 00 00
11.201000 1 200 Rx d 8 C6 25 A0 02 16 00 00 00
11.201500 1 400 Rx d 8 5B 03 F0 00 35 02 00 00
11.250000 1 100 Rx d 8 8B 6C 8C 88 00 00 00 00
11.250500 1 300 Rx d 8 11 0E 2F 02 28 01 00 00
11.252000 1 500 Rx d 8 50 5A 5D 86 00 00 00 00
11.300000 1 100 Rx d 8 8B 69 8C 88 00 00 00 00
11.300500 1 300 Rx d 8 10 0E 31 02 28 01 00 00
11.301000 1 200 Rx d 8 80 25 A6 02 16 00 00 00
11.301500 1 400 Rx d 8 85 03 F0 00 14 02 00 00
11.350000 1 100 Rx d 8 8B 65 8C 88 00 00 00 00
11.350500 1 300 Rx d 8 10 0E 33 02 27 01 00 00
11.400000 1 100 Rx d 8 8B 62 8C 88 00 00 00 00
11.400500 1 300 Rx d 8 13 0E 35 02 27 01 00 00
11.401000 1 200 Rx d 8 39 25 AC 02 15 00 00 00
11.401500 1 400 Rx d 8 AB 03 F0 00 F0 01 00 00
11.450000 1 100 Rx d 8 8B 5F 8C 88 00 00 00 00
11.450500 1 300 Rx d 8 19 0E 37 02 27 01 00 00
11.500000 1 100 Rx d 8 8B 5C 8C 88 00 00 00 00
11.500500 1 300 Rx d 8 20 0E 39 02 27 01 00 00
11.501000 1 200 Rx d 8 F0 24 B2 02 14 00 00 00
11.501500 1 400 Rx d 8 CE 03 F0 00 C9 01 00 00
11.502000 1 500 Rx d 8 50 5A 5C 87 00 00 00 00
11.550000 1 100 Rx d 8 8B 59 8C 88 00 00 00 00
11.550500 1 300 Rx d 8 2B 0E 3B 02 27 01 00 00
11.600000 1 100 Rx d 8 8B 56 8C 88 00 00 00 00
11.600500 1 300 Rx d 8 37 0E 3D 02 26 01 00 00
11.601000 1 200 Rx d 8 A6 24 B8 02 13 00 00 00
11.601500 1 400 Rx d 8 ED 03 F0 00 A0 01 00 00
11.650000 1 100 Rx d 8 8B 53 8C 88 00 00 00 00
11.650500 1 300 Rx d 8 46 0E 3F 02 26 01 00 00
11.700000 1 100 Rx d 8 8B 50 8C 87 00 00 00 00
11.700500 1 300 Rx d 8 57 0E 41 02 26 01 00 00
11.701000 1 200 Rx d 8 5B 24 BE 02 12 00 00 00
11.701500 1 400 Rx d 8 07 04 F0 00 74 01 00 00
11.750000 1 100 Rx d 8 8B 4D 8C 87 00 00 00 00
11.750500 1 300 Rx d 8 6A 0E 44 02 26 01 00 00
11.752000 1 500 Rx d 8 50 5A 5C 87 00 00 00 00
11.800000 1 100 Rx d 8 8B 4A 8C 87 00 00 00 00
11.800500 1 300 Rx d 8 80 0E 46 02 25 01 00 00
11.801000 1 200 Rx d 8 0E 24 C4 02 11 00 00 00
11.801500 1 400 Rx d 8 1E 04 F0 00 46 01 00 00
11.850000 1 100 Rx d 8 8B 47 8C 87 00 00 00 00
11.850500 1 300 Rx d 8 98 0E 48 02 25 01 00 00
11.900000 1 100 Rx d 8 8B 44 8C 87 00 00 00 00
11.900500 1 300 Rx d 8 B2 0E 4A 02 25 01 00 00
11.901000 1 200 Rx d 8 C0 23 CA 02 10 00 00 00
11.901500 1 400 Rx d 8 30 04 F0 00 16 01 00 00
11.950000 1 100 Rx d 8 8B 41 8C 87 00 00 00 00
11.950500 1 300 Rx d 8 CF 0E 4D 02 25 01 00 00
12.000000 1 100 Rx d 8 8B 3F 8C 87 00 00 00 00
12.000500 1 300 Rx d 8 ED 0E 4F 03 24 01 00 00
12.001000 1 200 Rx d 8 70 23 D0 02 10 00 00 00
12.001500 1 400 Rx d 8 3D 04 F0 00 E5 00 00 00
12.002000 1 500 Rx d 8 50 5A 5C 87 00 00 00 00
12.050000 1 100 Rx d 8 8B 3C 8C 87 00 00 00 00
12.050500 1 300 Rx d 8 0E 0F 51 03 24 01 00 00
12.100000 1 100 Rx d 8 8B 39 8D 87 00 00 00 00
12.100500 1 300 Rx d 8 32 0F 54 03 24 01 00 00
12.101000 1 200 Rx d 8 1F 23 D6 02 0F 00 00 00
12.101500 1 400 Rx d 8 46 04 F0 00 B2 00 00 00
12.150000 1 100 Rx d 8 8B 37 8D 87 00 00 00 00
12.150500 1 300 Rx d 8 57 0F 56 03 23 01 00 00
12.200000 1 100 Rx d 8 8B 35 8D 87 00 00 00 00
12.200500 1 300 Rx d 8 7F 0F 59 03 23 01 00 00
12.201000 1 200 Rx d 8 CD 22 DC 02 0E 00 00 00
12.201500 1 400 Rx d 8 4B 04 F0 00 7E 00 00 00
12.250000 1 100 Rx d 8 8B 32 8D 87 00 00 00 00
12.250500 1 300 Rx d 8 A9 0F 5B 03 23 01 00 00
12.252000 1 500 Rx d 8 50 5A 5C 87 00 00 00 00
12.300000 1 100 Rx d 8 8B 30 8D 87 00 00 00 00
12.300500 1 300 Rx d 8 D5 0F 5E 03 22 01 00 00
12.301000 1 200 Rx d 8 7A 22 E2 02 0D 00 00 00
12.301500 1 400 Rx d 8 4B 04 F0 00 4A 00 00 00
12.350000 1 100 Rx d 8 8B 2E 8D 87 00 00 00 00
12.350500 1 300 Rx d 8 03 10 60 03 22 01 00 00
12.400000 1 100 Rx d 8 8B 2C 8D 87 00 00 00 00
12.400500 1 300 Rx d 8 33 10 63 03 22 01 00 00
12.401000 1 200 Rx d 8 26 22 E8 02 0D 00 00 00
12.401500 1 400 Rx d 8 47 04 F0 00 15 00 00 00
12.450000 1 100 Rx d 8 8B 2A 8D 86 00 00 00 00
12.450500 1 300 Rx d 8 66 10 65 03 22 01 00 00
12.500000 1 100 Rx d 8 8B 28 8D 86 00 00 00 00
12.500500 1 300 Rx d 8 9A 10 68 03 21 01 00 00
12.501000 1 200 Rx d 8 D1 21 EE 02 0C 00 00 00
12.501500 1 400 Rx d 8 3E 04 F0 00 E1 FF 00 00
12.502000 1 500 Rx d 8 50 5A 5C 87 00 00 00 00
12.550000 1 100 Rx d 8 8B 27 8D 86 00 00 00 00
12.550500 1 300 Rx d 8 D1 10 6A 03 21 01 00 00
12.600000 1 100 Rx d 8 8B 25 8D 86 00 00 00 00
12.600500 1 300 Rx d 8 09 11 6D 03 21 01 00 00
12.601000 1 200 Rx d 8 7A 21 F4 02 0B 00 00 00
12.601500 1 400 Rx d 8 30 04 F0 00 AC FF 00 00
12.650000 1 100 Rx d 8 8B 24 8D 86 00 00 00 00
12.650500 1 300 Rx d 8 44 11 6F 03 20 01 00 00
12.700000 1 100 Rx d 8 8B 22 8D 86 00 00 00 00
12.700500 1 300 Rx d 8 80 11 72 03 20 01 00 00
12.701000 1 200 Rx d 8 23 21 FA 02 0B 00 00 00
12.701500 1 400 Rx d 8 1E 04 F0 00 78 FF 00 00
12.750000 1 100 Rx d 8 8B 21 8D 86 00 00 00 00
12.750500 1 300 Rx d 8 BF 11 75 03 20 01 00 00
12.752000 1 500 Rx d 8 50 5A 5C 87 00 00 00 00
12.800000 1 100 Rx d 8 8B 20 8D 86 00 00 00 00
12.800500 1 300 Rx d 8 00 12 77 03 1F 01 00 00
12.801000 1 200 Rx d 8 CA 20 00 03 0A 00 00 00
12.801500 1 400 Rx d 8 08 04 F0 00 44 FF 00 00
12.850000 1 100 Rx d 8 8C 1F 8D 86 00 00 00 00
12.850500 1 300 Rx d 8 42 12 7A 03 1F 01 00 00
12.900000 1 100 Rx d 8 8C 1E 8D 86 00 00 00 00
12.900500 1 300 Rx d 8 86 12 7C 03 1E 01 00 00
12.901000 1 200 Rx d 8 71 20 06 03 0A 00 00 00
12.901500 1 400 Rx d 8 EE 03 F0 00 12 FF 00 00
12.950000 1 100 Rx d 8 8C 1E 8D 86 00 00 00 00
12.950500 1 300 Rx d 8 CC 12 7F 03 1E 01 00 00
13.000000 1 100 Rx d 8 8C 1D 8D 86 00 00 00 00
13.000500 1 300 Rx d 8 14 13 81 03 1E 01 00 00
13.001000 1 200 Rx d 8 17 20 0C 03 09 00 00 00
13.001500 1 400 Rx d 8 D0 03 F0 00 E1 FE 00 00
13.002000 1 500 Rx d 8 50 5B 5C 87 00 00 00 00
13.050000 1 100 Rx d 8 8C 1D 8D 86 00 00 00 00
13.050500 1 300 Rx d 8 5E 13 84 03 1D 01 00 00
13.100000 1 100 Rx d 8 8C 1C 8D 86 00 00 00 00
13.100500 1 300 Rx d 8 A9 13 86 03 1D 01 00 00
13.101000 1 200 Rx d 8 BB 1F 12 03 09 00 00 00
13.101500 1 400 Rx d 8 AD 03 F0 00 B1 FE 00 00
13.150000 1 100 Rx d 8 8C 1C 8D 86 00 00 00 00
13.150500 1 300 Rx d 8 F7 13 89 03 1D 01 00 00
13.200000 1 100 Rx d 8 8C 1C 8D 85 00 00 00 00
13.200500 1 300 Rx d 8 46 14 8C 03 1C 01 00 00
13.201000 1 200 Rx d 8 5F 1F 18 03 09 00 00 00
13.201500 1 400 Rx d 8 87 03 F0 00 84 FE 00 00
13.250000 1 100 Rx d 8 8C 1C 8D 85 00 00 00 00
13.250500 1 300 Rx d 8 96 14 8E 03 1C 01 00 00
13.252000 1 500 Rx d 8 50 5B 5C 87 00 00 00 00
13.300000 1 100 Rx d 8 8C 1C 8D 85 00 00 00 00
13.300500 1 300 Rx d 8 E8 14 91 03 1B 01 00 00
13.301000 1 200 Rx d 8 03 1F 1E 03 08 00 00 00
13.301500 1 400 Rx d 8 5D 03 F0 00 58 FE 00 00
13.350000 1 100 Rx d 8 8C 1D 8D 85 00 00 00 00
13.350500 1 300 Rx d 8 3C 15 93 03 1B 01 00 00
13.400000 1 100 Rx d 8 8C 1D 8D 85 00 00 00 00
13.400500 1 300 Rx d 8 91 15 96 03 1B 01 00 00
13.401000 1 200 Rx d 8 A5 1E 24 03 08 00 00 00
13.401500 1 400 Rx d 8 2F 03 F0 00 2F FE 00 00
13.450000 1 100 Rx d 8 8C 1E 8D 85 00 00 00 00
13.450500 1 300 Rx d 8 E8 15 98 03 1A 01 00 00
13.500000 1 100 Rx d 8 8C 1E 8D 85 00 00 00 00
13.500500 1 300 Rx d 8 40 16 9A 03 1A 01 00 00
13.501000 1 200 Rx d 8 47 1E 2A 03 08 00 00 00
13.501500 1 400 Rx d 8 FE 02 F0 00 09 FE 00 00
13.502000 1 500 Rx d 8 50 5B 5C 87 00 00 00 00
13.550000 1 100 Rx d 8 8C 1F 8D 85 00 00 00 00
13.550500 1 300 Rx d 8 9A 16 9D 03 19 01 00 00
13.600000 1 100 Rx d 8 8C 20 8D 85 00 00 00 00
13.600500 1 300 Rx d 8 F5 16 9F 03 19 01 00 00
13.601000 1 200 Rx d 8 E8 1D 30 03 08 00 00 00
13.601500 1 400 Rx d 8 CA 02 F0 00 E6 FD 00 00
13.650000 1 100 Rx d 8 8C 21 8D 85 00 00 00 00
13.650500 1 300 Rx d 8 52 17 A2 03 18 01 00 00
13.700000 1 100 Rx d 8 8C 23 8D 85 00 00 00 00
13.700500 1 300 Rx d 8 AF 17 A4 03 18 01 00 00
13.701000 1 200 Rx d 8 88 1D 36 03 07 00 00 00
13.701500 1 400 Rx d 8 93 02 F0 00 C5 FD 00 00
13.750000 1 100 Rx d 8 8C 24 8D 85 00 00 00 00
13.750500 1 300 Rx d 8 0F 18 A6 03 18 01 00 00
13.752000 1 500 Rx d 8 50 5B 5C 87 00 00 00 00
13.800000 1 100 Rx d 8 8C 25 8D 85 00 00 00 00
13.800500 1 300 Rx d 8 6F 18 A9 03 17 01 00 00
13.801000 1 200 Rx d 8 28 1D 3C 03 07 00 00 00
13.801500 1 400 Rx d 8 59 02 F0 00 A8 FD 00 00
13.850000 1 100 Rx d 8 8C 27 8D 85 00 00 00 00
13.850500 1 300 Rx d 8 D0 18 AB 03 17 01 00 00
13.900000 1 100 Rx d 8 8C 29 8D 85 00 00 00 00
13.900500 1 300 Rx d 8 33 19 AD 03 16 01 00 00
13.901000 1 200 Rx d 8 C7 1C 42 03 07 00 00 00
13.901500 1 400 Rx d 8 1D 02 F0 00 8F FD 00 00
13.950000 1 100 Rx d 8 8C 2B 8D 85 00 00 00 00
13.950500 1 300 Rx d 8 97 19 AF 03 16 01 00 00
14.000000 1 100 Rx d 8 8C 2C 8D 85 00 00 00 00
14.000500 1 300 Rx d 8 FB 19 B2 03 15 01 00 00
14.001000 1 200 Rx d 8 66 1C 48 03 07 00 00 00
14.001500 1 400 Rx d 8 DE 01 F0 00 79 FD 00 00
14.002000 1 500 Rx d 8 50 5B 5C 87 00 00 00 00
14.050000 1 100 Rx d 8 8C 2F 8D 85 00 00 00 00
14.050500 1 300 Rx d 8 61 1A B4 03 15 01 00 00
14.100000 1 100 Rx d 8 8C 31 8E 85 00 00 00 00
14.100500 1 300 Rx d 8 C8 1A B6 03 14 01 00 00
14.101000 1 200 Rx d 8 04 1C 4E 03 07 00 00 00
14.101500 1 400 Rx d 8 9E 01 F0 00 67 FD 00 00
14.150000 1 100 Rx d 8 8C 33 8E 84 00 00 00 00
14.150500 1 300 Rx d 8 30 1B B8 03 14 01 00 00
14.200000 1 100 Rx d 8 8C 35 8E 84 00 00 00 00
14.200500 1 300 Rx d 8 98 1B BA 03 13 01 00 00
14.201000 1 200 Rx d 8 A2 1B 54 03 07 00 00 00
14.201500 1 400 Rx d 8 5C 01 F0 00 58 FD 00 00
14.250000 1 100 Rx d 8 8C 38 8E 84 00 00 00 00
14.250500 1 300 Rx d 8 02 1C BC 03 13 01 00 00
14.252000 1 500 Rx d 8 50 5B 5C 87 00 00 00 00
14.300000 1 100 Rx d 8 8C 3A 8E 84 00 00 00 00
14.300500 1 300 Rx d 8 6C 1C BE 03 13 01 00 00
14.301000 1 200 Rx d 8 40 1B 5A 03 07 00 00 00
14.301500 1 400 Rx d 8 18 01 F0 00 4E FD 00 00
14.350000 1 100 Rx d 8 8C 3D 8E 84 00 00 00 00
14.350500 1 300 Rx d 8 D7 1C C0 03 12 01 00 00
14.400000 1 100 Rx d 8 8C 3F 8E 84 00 00 00 00
14.400500 1 300 Rx d 8 43 1D C2 03 12 01 00 00
14.401000 1 200 Rx d 8 DD 1A 60 03 07 00 00 00
14.401500 1 400 Rx d 8 D4 00 F0 00 47 FD 00 00
14.450000 1 100 Rx d 8 8C 42 8E 84 00 00 00 00
14.450500 1 300 Rx d 8 AF 1D C3 03 11 01 00 00
14.500000 1 100 Rx d 8 8C 45 8E 84 00 00 00 00
14.500500 1 300 Rx d 8 1C 1E C5 03 11 01 00 00
14.501000 1 200 Rx d 8 7A 1A 66 03 07 00 00 00
14.501500 1 400 Rx d 8 8E 00 F0 00 45 FD 00 00
14.502000 1 500 Rx d 8 50 5B 5C 87 00 00 00 00
14.550000 1 100 Rx d 8 8C 48 8E 84 00 00 00 00
14.550500 1 300 Rx d 8 89 1E C7 03 10 01 00 00
14.600000 1 100 Rx d 8 8C 4A 8E 84 00 00 00 00
14.600500 1 300 Rx d 8 F7 1E C9 03 10 01 00 00
14.601000 1 200 Rx d 8 16 1A 6C 03 07 00 00 00
14.601500 1 400 Rx d 8 48 00 F0 00 46 FD 00 00
14.650000 1 100 Rx d 8 8C 4D 8E 84 00 00 00 00
14.650500 1 300 Rx d 8 66 1F CA 03 0F 01 00 00
14.700000 1 100 Rx d 8 8C 50 8E 84 00 00 00 00
14.700500 1 300 Rx d 8 D5 1F CC 03 0F 01 00 00
14.701000 1 200 Rx d 8 B3 19 72 03 08 00 00 00
14.701500 1 400 Rx d 8 01 00 F0 00 4B FD 00 00
14.750000 1 100 Rx d 8 8C 53 8E 84 00 00 00 00
14.750500 1 300 Rx d 8 44 20 CD 03 0E 01 00 00
14.752000 1 500 Rx d 8 50 5B 5C 88 00 00 00 00
14.800000 1 100 Rx d 8 8C 56 8E 84 00 00 00 00
14.800500 1 300 Rx d 8 B4 20 CF 03 0D 01 00 00
14.801000 1 200 Rx d 8 4F 19 78 03 08 00 00 00
14.801500 1 400 Rx d 8 BC FF F0 00 55 FD 00 00
14.850000 1 100 Rx d 8 8C 5A 8E 84 00 00 00 00
14.850500 1 300 Rx d 8 24 21 D0 03 0D 01 00 00
14.900000 1 100 Rx d 8 8C 5D 8E 84 00 00 00 00
14.900500 1 300 Rx d 8 94 21 D2 03 0C 01 00 00
14.901000 1 200 Rx d 8 EB 18 7E 03 08 00 00 00
14.901500 1 400 Rx d 8 76 FF F0 00 62 FD 00 00
14.950000 1 100 Rx d 8 8C 60 8E 84 00 00 00 00
14.950500 1 300 Rx d 8 04 22 D3 03 0C 01 00 00
15.000000 1 100 Rx d 8 8C 63 8E 84 00 00 00 00
15.000500 1 300 Rx d 8 74 22 D4 03 0B 01 00 00
15.001000 1 200 Rx d 8 87 18 84 03 08 00 00 00
15.001500 1 400 Rx d 8 30 FF F0 00 73 FD 00 00
15.002000 1 500 Rx d 8 50 5B 5C 88 00 00 00 00
15.050000 1 100 Rx d 8 8C 66 8E 84 00 00 00 00
15.050500 1 300 Rx d 8 E5 22 D5 03 0B 01 00 00
15.100000 1 100 Rx d 8 8C 69 8E 84 00 00 00 00
15.100500 1 300 Rx d 8 55 23 D6 03 0A 01 00 00
15.101000 1 200 Rx d 8 23 18 8A 03 09 00 00 00
15.101500 1 400 Rx d 8 EB FE F0 00 88 FD 00 00
15.150000 1 100 Rx d 8 8C 6C 8E 84 00 00 00 00
15.150500 1 300 Rx d 8 C6 23 D8 03 0A 01 00 00
15.200000 1 100 Rx d 8 8C 70 8E 84 00 00 00 00
15.200500 1 300 Rx d 8 36 24 D9 03 09 01 00 00
15.201000 1 200 Rx d 8 BF 17 90 03 09 00 00 00
15.201500 1 400 Rx d 8 A8 FE F0 00 A1 FD 00 00
15.250000 1 100 Rx d 8 8C 73 8E 84 00 00 00 00
15.250500 1 300 Rx d 8 A6 24 DA 03 09 01 00 00
15.252000 1 500 Rx d 8 50 5B 5C 88 00 00 00 00
15.300000 1 100 Rx d 8 8C 76 8E 84 00 00 00 00
15.300500 1 300 Rx d 8 17 25 DA 03 08 01 00 00
15.301000 1 200 Rx d 8 5B 17 96 03 0A 00 00 00
15.301500 1 400 Rx d 8 66 FE F0 00 BD FD 00 00
15.350000 1 100 Rx d 8 8C 79 8E 83 00 00 00 00
15.350500 1 300 Rx d 8 87 25 DB 03 08 01 00 00
15.400000 1 100 Rx d 8 8C 7C 8E 83 00 00 00 00
15.400500 1 300 Rx d 8 F6 25 DC 03 07 01 00 00
15.401000 1 200 Rx d 8 F7 16 9C 03 0A 00 00 00
15.401500 1 400 Rx d 8 25 FE F0 00 DC FD 00 00
15.450000 1 100 Rx d 8 8C 7F 8E 83 00 00 00 00
15.450500 1 300 Rx d 8 65 26 DD 03 06 01 00 00
15.500000 1 100 Rx d 8 8C 82 8E 83 00 00 00 00
15.500500 1 300 Rx d 8 D4 26 DE 03 06 01 00 00
15.501000 1 200 Rx d 8 94 16 A2 03 0B 00 00 00
15.501500 1 400 Rx d 8 E6 FD F0 00 FF FD 00 00
15.502000 1 500 Rx d 8 50 5B 5C 88 00 00 00 00
15.550000 1 100 Rx d 8 8C 85 8E 83 00 00 00 00
15.550500 1 300 Rx d 8 43 27 DE 03 05 01 00 00
15.600000 1 100 Rx d 8 8C 88 8E 83 00 00 00 00
15.600500 1 300 Rx d 8 B1 27 DF 03 05 01 00 00
15.601000 1 200 Rx d 8 30 16 A8 03 0B 00 00 00
15.601500 1 400 Rx d 8 AA FD F0 00 24 FE 00 00
15.650000 1 100 Rx d 8 8C 8B 8E 83 00 00 00 00
15.650500 1 300 Rx d 8 1F 28 DF 03 04 01 00 00
15.700000 1 100 Rx d 8 8C 8E 8E 83 00 00 00 00
15.700500 1 300 Rx d 8 8C 28 E0 03 04 01 00 00
15.701000 1 200 Rx d 8 CD 15 AE 03 0C 00 00 00
15.701500 1 400 Rx d 8 70 FD F0 00 4C FE 00 00
15.750000 1 100 Rx d 8 8C 90 8E 83 00 00 00 00
15.750500 1 300 Rx d 8 F8 28 E0 03 03 01 00 00
15.752000 1 500 Rx d 8 50 5B 5C 88 00 00 00 00
15.800000 1 100 Rx d 8 8C 93 8E 83 00 00 00 00
15.800500 1 300 Rx d 8 64 29 E0 03 02 01 00 00
15.801000 1 200 Rx d 8 6A 15 B4 03 0C 00 00 00
15.801500 1 400 Rx d 8 39 FD F0 00 77 FE 00 00
15.850000 1 100 Rx d 8 8C 96 8E 83 00 00 00 00
15.850500 1 300 Rx d 8 CF 29 E1 03 02 01 00 00
15.900000 1 100 Rx d 8 8C 98 8E 83 00 00 00 00
15.900500 1 300 Rx d 8 3A 2A E1 03 01 01 00 00
15.901000 1 200 Rx d 8 07 15 BA 03 0D 00 00 00
15.901500 1 400 Rx d 8 05 FD F0 00 A4 FE 00 00
15.950000 1 100 Rx d 8 8C 9A 8E 83 00 00 00 00
15.950500 1 300 Rx d 8 A3 2A E1 03 01 01 00 00
16.000000 1 100 Rx d 8 8C 9D 8E 83 00 00 00 00
16.000500 1 300 Rx d 8 0C 2B E1 03 00 01 00 00
16.001000 1 200 Rx d 8 A5 14 C0 03 0E 00 00 00
16.001500 1 400 Rx d 8 D4 FC F0 00 D3 FE 00 00
16.002000 1 500 Rx d 8 50 5B 5C 88 00 00 00 00
16.010000 1 7E0 Rx d 8 05 31 01 02 03 03 00 00
16.013000 1 7E8 Rx d 8 03 7F 31 78 00 00 00 00
16.018000 1 7E8 Rx d 8 05 71 01 02 03 00 00 00
16.050000 1 100 Rx d 8 8C 9F 8E 83 00 00 00 00
16.050500 1 300 Rx d 8 74 2B E1 03 FF 00 00 00
16.100000 1 100 Rx d 8 8C A1 8E 83 00 00 00 00
16.100500 1 300 Rx d 8 DB 2B E1 03 FF 00 00 00
16.101000 1 200 Rx d 8 43 14 C6 03 0E 00 00 00
16.101500 1 400 Rx d 8 A6 FC F0 00 04 FF 00 00
16.150000 1 100 Rx d 8 8C A3 8E 83 00 00 00 00
16.150500 1 300 Rx d 8 41 2C E1 03 FE 00 00 00
16.200000 1 100 Rx d 8 8C A5 8E 83 00 00 00 00
16.200500 1 300 Rx d 8 A6 2C E1 03 FE 00 00 00
16.201000 1 200 Rx d 8 E1 13 CC 03 0F 00 00 00
16.201500 1 400 Rx d 8 7B FC F0 00 36 FF 00 00
16.250000 1 100 Rx d 8 8C A7 8E 83 00 00 00 00
16.250500 1 300 Rx d 8 0A 2D E0 03 FD 00 00 00
16.252000 1 500 Rx d 8 4F 5B 5C 88 00 00 00 00
16.300000 1 100 Rx d 8 8C A9 8E 83 00 00 00 00
16.300500 1 300 Rx d 8 6C 2D E0 03 FC 00 00 00
16.301000 1 200 Rx d 8 80 13 D2 03 10 00 00 00
16.301500 1 400 Rx d 8 55 FC F0 00 69 FF 00 00
16.350000 1 100 Rx d 8 8C AA 8E 83 00 00 00 00
16.350500 1 300 Rx d 8 CE 2D E0 03 FC 00 00 00
16.400000 1 100 Rx d 8 8C AC 8E 83 00 00 00 00
16.400500 1 300 Rx d 8 2F 2E DF 03 FB 00 00 00
16.401000 1 200 Rx d 8 20 13 D8 03 10 00 00 00
16.401500 1 400 Rx d 8 32 FC F0 00 9D FF 00 00
16.450000 1 100 Rx d 8 8C AD 8E 83 00 00 00 00
16.450500 1 300 Rx d 8 8E 2E DF 03 FB 00 00 00
16.500000 1 100 Rx d 8 8C AE 8E 83 00 00 00 00
16.500500 1 300 Rx d 8 EC 2E DE 03 FA 00 00 00
16.501000 1 200 Rx d 8 C0 12 DE 03 11 00 00 00
16.501500 1 400 Rx d 8 13 FC F0 00 D2 FF 00 00
16.502000 1 500 Rx d 8 4F 5B 5C 88 00 00 00 00
16.550000 1 100 Rx d 8 8C B0 8E 83 00 00 00 00
16.550500 1 300 Rx d 8 49 2F DE 03 F9 00 00 00
16.600000 1 100 Rx d 8 8C B1 8E 83 00 00 00 00
16.600500 1 300 Rx d 8 A4 2F DD 03 F9 00 00 00
16.601000 1 200 Rx d 8 60 12 E4 03 12 00 00 00
16.601500 1 400 Rx d 8 F9 FB F0 00 06 00 00 00
16.650000 1 100 Rx d 8 8C B1 8E 83 00 00 00 00
16.650500 1 300 Rx d 8 FE 2F DC 03 F8 00 00 00
16.700000 1 100 Rx d 8 8C B2 8E 83 00 00 00 00
16.700500 1 300 Rx d 8 57 30 DB 03 F8 00 00 00
16.701000 1 200 Rx d 8 02 12 EA 03 13 00 00 00
16.701500 1 400 Rx d 8 E3 FB F8 00 3B 00 00 00
16.750000 1 100 Rx d 8 8C B3 8E 83 00 00 00 00
16.750500 1 300 Rx d 8 AE 30 DA 03 F7 00 00 00
16.752000 1 500 Rx d 8 4F 5B 5C 88 00 00 00 00
16.800000 1 100 Rx d 8 8C B3 8E 83 00 00 00 00
16.800500 1 300 Rx d 8 03 31 D9 03 F6 00 00 00
16.801000 1 200 Rx d 8 A4 11 F0 03 14 00 00 00
16.801500 1 400 Rx d 8 D1 FB 00 01 70 00 00 00
16.850000 1 100 Rx d 8 8C B4 8E 83 00 00 00 00
16.850500 1 300 Rx d 8 57 31 D8 03 F6 00 00 00
16.900000 1 100 Rx d 8 8C B4 8E 83 00 00 00 00
16.900500 1 300 Rx d 8 AA 31 D7 03 F5 00 00 00
16.901000 1 200 Rx d 8 46 11 F6 03 15 00 00 00
16.901500 1 400 Rx d 8 C3 FB 07 01 A4 00 00 00
16.950000 1 100 Rx d 8 8C B4 8F 83 00 00 00 00
16.950500 1 300 Rx d 8 FB 31 D6 03 F4 00 00 00
17.000000 1 100 Rx d 8 8C B4 8F 83 00 00 00 00
17.000500 1 300 Rx d 8 4A 32 D5 03 F4 00 00 00
17.001000 1 200 Rx d 8 EA 10 FC 03 16 00 00 00
17.001500 1 400 Rx d 8 BA FB 0F 01 D7 00 00 00
17.002000 1 500 Rx d 8 4F 5B 5C 88 00 00 00 00
17.050000 1 100 Rx d 8 8C B4 8F 83 00 00 00 00
17.050500 1 300 Rx d 8 97 32 D4 03 F3 00 00 00
17.100000 1 100 Rx d 8 8C B4 8F 83 00 00 00 00
17.100500 1 300 Rx d 8 E3 32 D3 03 F2 00 00 00
17.101000 1 200 Rx d 8 8E 10 02 04 17 00 00 00
17.101500 1 400 Rx d 8 B5 FB 16 01 08 01 00 00
17.150000 1 100 Rx d 8 8C B3 8F 83 00 00 00 00
17.150500 1 300 Rx d 8 2D 33 D1 03 F2 00 00 00
17.200000 1 100 Rx d 8 8C B3 8F 83 00 00 00 00
17.200500 1 300 Rx d 8 75 33 D0 03 F1 00 00 00
17.201000 1 200 Rx d 8 33 10 08 04 18 00 00 00
17.201500 1 400 Rx d 8 B5 FB 1D 01 39 01 00 00
17.250000 1 100 Rx d 8 8C B2 8F 83 00 00 00 00
17.250500 1 300 Rx d 8 BC 33 CF 03 F1 00 00 00
17.252000 1 500 Rx d 8 4F 5B 5C 88 00 00 00 00
17.300000 1 100 Rx d 8 8C B1 8F 83 00 00 00 00
17.300500 1 300 Rx d 8 01 34 CD 03 F0 00 00 00
17.301000 1 200 Rx d 8 D9 0F 0E 04 19 00 00 00
17.301500 1 400 Rx d 8 B9 FB 25 01 67 01 00 00
17.350000 1 100 Rx d 8 8B B0 8F 83 00 00 00 00
17.350500 1 300 Rx d 8 43 34 CC 03 EF 00 00 00
17.400000 1 100 Rx d 8 8B AF 8F 83 00 00 00 00
17.400500 1 300 Rx d 8 84 34 CA 03 EF 00 00 00
17.401000 1 200 Rx d 8 80 0F 14 04 1A 00 00 00
17.401500 1 400 Rx d 8 C2 FB 2C 01 94 01 00 00
17.450000 1 100 Rx d 8 8B AE 8F 83 00 00 00 00
17.450500 1 300 Rx d 8 C3 34 C8 03 EE 00 00 00
17.500000 1 100 Rx d 8 8B AD 8F 83 00 00 00 00
17.500500 1 300 Rx d 8 00 35 C7 03 ED 00 00 00
17.501000 1 200 Rx d 8 28 0F 1A 04 1B 00 00 00
17.501500 1 400 Rx d 8 D0 FB 33 01 BE 01 00 00
17.502000 1 500 Rx d 8 4F 5B 5C 88 00 00 00 00
17.550000 1 100 Rx d 8 8B AB 8F 83 00 00 00 00
17.550500 1 300 Rx d 8 3B 35 C5 03 ED 00 00 00
17.600000 1 100 Rx d 8 8B AA 8F 83 00 00 00 00
17.600500 1 300 Rx d 8 74 35 C3 03 EC 00 00 00
17.601000 1 200 Rx d 8 D1 0E 20 04 1C 00 00 00
17.601500 1 400 Rx d 8 E1 FB 3A 01 E5 01 00 00
17.650000 1 100 Rx d 8 8B A8 8F 83 00 00 00 00
17.650500 1 300 Rx d 8 AB 35 C1 03 EB 00 00 00
17.700000 1 100 Rx d 8 8B A6 8F 83 00 00 00 00
17.700500 1 300 Rx d 8 E0 35 BF 03 EB 00 00 00
17.701000 1 200 Rx d 8 7B 0E 26 04 1D 00 00 00
17.701500 1 400 Rx d 8 F7 FB 41 01 0A 02 00 00
17.750000 1 100 Rx d 8 8B A4 8F 83 00 00 00 00
17.750500 1 300 Rx d 8 13 36 BE 03 EA 00 00 00
17.752000 1 500 Rx d 8 4F 5B 5C 88 00 00 00 00
17.800000 1 100 Rx d 8 8B A2 8F 83 00 00 00 00
17.800500 1 300 Rx d 8 43 36 BC 03 E9 00 00 00
17.801000 1 200 Rx d 8 26 0E 2C 04 1E 00 00 00
17.801500 1 400 Rx d 8 12 FC 48 01 2C 02 00 00
17.850000 1 100 Rx d 8 8B A0 8F 83 00 00 00 00
17.850500 1 300 Rx d 8 72 36 BA 03 E9 00 00 00
17.900000 1 100 Rx d 8 8B 9E 8F 83 00 00 00 00
17.900500 1 300 Rx d 8 9E 36 B8 03 E8 00 00 00
17.901000 1 200 Rx d 8 D3 0D 32 04 1F 00 00 00
17.901500 1 400 Rx d 8 30 FC 4F 01 4A 02 00 00
17.950000 1 100 Rx d 8 8B 9C 8F 83 00 00 00 00
17.950500 1 300 Rx d 8 C9 36 B5 03 E7 00 00 00
18.000000 1 100 Rx d 8 8B 99 8F 83 00 00 00 00
18.000500 1 300 Rx d 8 F1 36 B3 04 E7 00 00 00
18.001000 1 200 Rx d 8 80 0D 38 04 20 00 00 00
18.001500 1 400 Rx d 8 53 FC 55 01 66 02 00 00
18.002000 1 500 Rx d 8 4F 5B 5C 88 00 00 00 00
18.050000 1 100 Rx d 8 8B 97 8F 83 00 00 00 00
18.050500 1 300 Rx d 8 17 37 B1 04 E6 00 00 00
18.100000 1 100 Rx d 8 8B 94 8F 83 00 00 00 00
18.100500 1 300 Rx d 8 3A 37 AF 04 E5 00 00 00
18.101000 1 200 Rx d 8 2F 0D 3E 04 21 00 00 00
18.101500 1 400 Rx d 8 79 FC 5C 01 7D 02 00 00
18.150000 1 100 Rx d 8 8B 92 8F 83 00 00 00 00
18.150500 1 300 Rx d 8 5C 37 AD 04 E5 00 00 00
18.200000 1 100 Rx d 8 8B 8F 8F 83 00 00 00 00
18.200500 1 300 Rx d 8 7B 37 AB 04 E4 00 00 00
18.201000 1 200 Rx d 8 DE 0C 44 04 22 00 00 00
18.201500 1 400 Rx d 8 A3 FC 62 01 91 02 00 00
18.250000 1 100 Rx d 8 8B 8C 8F 83 00 00 00 00
18.250500 1 300 Rx d 8 98 37 A8 04 E3 00 00 00
18.252000 1 500 Rx d 8 4E 5B 5C 88 00 00 00 00
18.300000 1 100 Rx d 8 8B 8A 8F 83 00 00 00 00
18.300500 1 300 Rx d 8 B3 37 A6 04 E3 00 00 00
18.301000 1 200 Rx d 8 8F 0C 4A 04 24 00 00 00
18.301500 1 400 Rx d 8 D1 FC 68 01 A1 02 00 00
18.350000 1 100 Rx d 8 8B 87 8F 83 00 00 00 00
18.350500 1 300 Rx d 8 CB 37 A4 04 E2 00 00 00
18.400000 1 100 Rx d 8 8B 84 8F 83 00 00 00 00
18.400500 1 300 Rx d 8 E1 37 A1 04 E1 00 00 00
18.401000 1 200 Rx d 8 42 0C 50 04 25 00 00 00
18.401500 1 400 Rx d 8 02 FD 6E 01 AE 02 00 00
18.450000 1 100 Rx d 8 8B 81 8F 83 00 00 00 00
18.450500 1 300 Rx d 8 F5 37 9F 04 E1 00 00 00
18.500000 1 100 Rx d 8 8B 7E 8F 83 00 00 00 00
18.500500 1 300 Rx d 8 06 38 9D 04 E0 00 00 00
18.501000 1 200 Rx d 8 F5 0B 56 04 26 00 00 00
18.501500 1 400 Rx d 8 36 FD 74 01 B6 02 00 00
18.502000 1 500 Rx d 8 4E 5B 5C 88 00 00 00 00
18.550000 1 100 Rx d 8 8B 7B 8F 83 00 00 00 00
18.550500 1 300 Rx d 8 15 38 9A 04 DF 00 00 00
18.600000 1 100 Rx d 8 8B 78 8F 84 00 00 00 00
18.600500 1 300 Rx d 8 22 38 98 04 DF 00 00 00
18.601000 1 200 Rx d 8 AA 0B 5C 04 27 00 00 00
18.601500 1 400 Rx d 8 6D FD 7A 01 BB 02 00 00
18.650000 1 100 Rx d 8 8B 75 8F 84 00 00 00 00
18.650500 1 300 Rx d 8 2D 38 95 04 DE 00 00 00
18.700000 1 100 Rx d 8 8B 71 8F 84 00 00 00 00
18.700500 1 300 Rx d 8 35 38 93 04 DD 00 00 00
18.701000 1 200 Rx d 8 61 0B 62 04 28 00 00 00
18.701500 1 400 Rx d 8 A6 FD 7F 01 BB 02 00 00
18.750000 1 100 Rx d 8 8B 6E 8F 84 00 00 00 00
18.750500 1 300 Rx d 8 3B 38 90 04 DD 00 00 00
18.752000 1 500 Rx d 8 4E 5B 5C 88 00 00 00 00
18.800000 1 100 Rx d 8 8B 6B 8F 84 00 00 00 00
18.800500 1 300 Rx d 8 3E 38 8E 04 DC 00 00 00
18.801000 1 200 Rx d 8 19 0B 68 04 29 00 00 00
18.801500 1 400 Rx d 8 E3 FD 84 01 B8 02 00 00
18.850000 1 100 Rx d 8 8B 68 8F 84 00 00 00 00
18.850500 1 300 Rx d 8 3F 38 8B 04 DB 00 00 00
18.900000 1 100 Rx d 8 8B 65 8F 84 00 00 00 00
18.900500 1 300 Rx d 8 3E 38 89 04 DB 00 00 00
18.901000 1 200 Rx d 8 D2 0A 6E 04 2B 00 00 00
18.901500 1 400 Rx d 8 21 FE 89 01 B0 02 00 00
18.950000 1 100 Rx d 8 8B 62 8F 84 00 00 00 00
18.950500 1 300 Rx d 8 3B 38 86 04 DA 00 00 00
19.000000 1 100 Rx d 8 8B 5E 8F 84 00 00 00 00
19.000500 1 300 Rx d 8 35 38 84 04 D9 00 00 00
19.001000 1 200 Rx d 8 8D 0A 74 04 2C 00 00 00
19.001500 1 400 Rx d 8 61 FE 8E 01 A5 02 00 00
19.002000 1 500 Rx d 8 4E 5B 5C 88 00 00 00 00
19.050000 1 100 Rx d 8 8A 5B 8F 84 00 00 00 00
19.050500 1 300 Rx d 8 2D 38 81 04 D9 00 00 00
19.100000 1 100 Rx d 8 8A 58 8F 84 00 00 00 00
19.100500 1 300 Rx d 8 22 38 7F 04 D8 00 00 00
19.101000 1 200 Rx d 8 49 0A 7A 04 2D 00 00 00
19.101500 1 400 Rx d 8 A4 FE 92 01 95 02 00 00
19.150000 1 100 Rx d 8 8A 55 8F 84 00 00 00 00
19.150500 1 300 Rx d 8 15 38 7C 04 D7 00 00 00
19.200000 1 100 Rx d 8 8A 52 8F 84 00 00 00 00
19.200500 1 300 Rx d 8 06 38 79 04 D7 00 00 00
19.201000 1 200 Rx d 8 07 0A 80 04 2E 00 00 00
19.201500 1 400 Rx d 8 E7 FE 97 01 82 02 00 00
19.250000 1 100 Rx d 8 8A 4F 8F 84 00 00 00 00
19.250500 1 300 Rx d 8 F5 37 77 04 D6 00 00 00
19.252000 1 500 Rx d 8 4E 5B 5C 88 00 00 00 00
19.300000 1 100 Rx d 8 8A 4C 8F 84 00 00 00 00
19.300500 1 300 Rx d 8 E1 37 74 04 D5 00 00 00
19.301000 1 200 Rx d 8 C6 09 86 04 2F 00 00 00
19.301500 1 400 Rx d 8 2C FF 9B 01 6B 02 00 00
19.350000 1 100 Rx d 8 8A 49 8F 84 00 00 00 00
19.350500 1 300 Rx d 8 CB 37 72 04 D5 00 00 00
19.400000 1 100 Rx d 8 8A 46 8F 84 00 00 00 00
19.400500 1 300 Rx d 8 B2 37 6F 04 D4 00 00 00
19.401000 1 200 Rx d 8 87 09 8C 04 30 00 00 00
19.401500 1 400 Rx d 8 71 FF 9E 01 51 02 00 00
19.450000 1 100 Rx d 8 8A 44 8F 84 00 00 00 00
19.450500 1 300 Rx d 8 97 37 6D 04 D4 00 00 00
19.500000 1 100 Rx d 8 8A 41 8F 84 00 00 00 00
19.500500 1 300 Rx d 8 7A 37 6A 04 D3 00 00 00
19.501000 1 200 Rx d 8 4A 09 92 04 32 00 00 00
19.501500 1 400 Rx d 8 B8 FF A2 01 33 02 00 00
19.502000 1 500 Rx d 8 4E 5B 5C 88 00 00 00 00
19.550000 1 100 Rx d 8 8A 3E 8F 84 00 00 00 00
19.550500 1 300 Rx d 8 5B 37 67 04 D2 00 00 00
19.600000 1 100 Rx d 8 8A 3C 8F 84 00 00 00 00
19.600500 1 300 Rx d 8 3A 37 65 04 D2 00 00 00
19.601000 1 200 Rx d 8 0E 09 98 04 33 00 00 00
19.601500 1 400 Rx d 8 FE FF A5 01 12 02 00 00
19.650000 1 100 Rx d 8 8A 39 8F 84 00 00 00 00
19.650500 1 300 Rx d 8 16 37 62 04 D1 00 00 00
19.700000 1 100 Rx d 8 8A 37 8F 84 00 00 00 00
19.700500 1 300 Rx d 8 F0 36 60 04 D0 00 00 00
19.701000 1 200 Rx d 8 D4 08 9E 04 34 00 00 00
19.701500 1 400 Rx d 8 43 00 A8 01 EE 01 00 00
19.750000 1 100 Rx d 8 8A 34 8F 84 00 00 00 00
19.750500 1 300 Rx d 8 C8 36 5D 04 D0 00 00 00
19.752000 1 500 Rx d 8 4D 5B 5C 88 00 00 00 00
19.800000 1 100 Rx d 8 8A 32 8F 84 00 00 00 00
19.800500 1 300 Rx d 8 9E 36 5B 04 CF 00 00 00
19.801000 1 200 Rx d 8 9C 08 A4 04 35 00 00 00
19.801500 1 400 Rx d 8 8A 00 AB 01 C7 01 00 00
19.850000 1 100 Rx d 8 8A 30 8F 85 00 00 00 00
19.850500 1 300 Rx d 8 71 36 58 04 CE 00 00 00
19.900000 1 100 Rx d 8 8A 2E 8F 85 00 00 00 00
19.900500 1 300 Rx d 8 42 36 56 04 CE 00 00 00
19.901000 1 200 Rx d 8 65 08 AA 04 36 00 00 00
19.901500 1 400 Rx d 8 CF 00 AE 01 9D 01 00 00
19.950000 1 100 Rx d 8 8A 2C 8F 85 00 00 00 00
19.950500 1 300 Rx d 8 12 36 54 04 CD 00 00 00
20.000000 1 100 Rx d 8 8A 2A 8F 85 00 00 00 00
20.000500 1 300 Rx d 8 DF 35 51 04 CC 00 00 00
20.001000 1 200 Rx d 8 31 08 B0 04 37 00 00 00
20.001500 1 400 Rx d 8 14 01 B0 01 71 01 00 00
20.002000 1 500 Rx d 8 4D 5B 5C 88 00 00 00 00
20.050000 1 100 Rx d 8 8A 28 8F 85 00 00 00 00
20.050500 1 300 Rx d 8 AA 35 4F 04 CC 00 00 00
20.100000 1 100 Rx d 8 8A 26 8F 85 00 00 00 00
20.100500 1 300 Rx d 8 73 35 4C 04 CB 00 00 00
20.101000 1 200 Rx d 8 FE 07 B6 04 38 00 00 00
20.101500 1 400 Rx d 8 58 01 B2 01 43 01 00 00
20.150000 1 100 Rx d 8 8A 25 8F 85 00 00 00 00
20.150500 1 300 Rx d 8 3A 35 4A 04 CA 00 00 00
20.200000 1 100 Rx d 8 89 23 8F 85 00 00 00 00
20.200500 1 300 Rx d 8 FF 34 48 04 CA 00 00 00
20.201000 1 200 Rx d 8 CC 07 BC 04 39 00 00 00
20.201500 1 400 Rx d 8 9A 01 B3 01 13 01 00 00
20.250000 1 100 Rx d 8 89 22 8F 85 00 00 00 00
20.250500 1 300 Rx d 8 C2 34 46 04 C9 00 00 00
20.252000 1 500 Rx d 8 4D 5B 5C 88 00 00 00 00
20.300000 1 100 Rx d 8 89 21 8F 85 00 00 00 00
20.300500 1 300 Rx d 8 83 34 43 04 C8 00 00 00
20.301000 1 200 Rx d 8 9D 07 C2 04 3A 00 00 00
20.301500 1 400 Rx d 8 DA 01 B5 01 E2 00 00 00
20.350000 1 100 Rx d 8 89 20 8F 85 00 00 00 00
20.350500 1 300 Rx d 8 42 34 41 04 C8 00 00 00
20.400000 1 100 Rx d 8 89 1F 8F 85 00 00 00 00
20.400500 1 300 Rx d 8 FF 33 3F 04 C7 00 00 00
20.401000 1 200 Rx d 8 70 07 C8 04 3B 00 00 00
20.401500 1 400 Rx d 8 19 02 B6 01 AF 00 00 00
20.450000 1 100 Rx d 8 89 1E 8F 85 00 00 00 00
20.450500 1 300 Rx d 8 BB 33 3D 04 C6 00 00 00
20.500000 1 100 Rx d 8 89 1D 8F 85 00 00 00 00
20.500500 1 300 Rx d 8 74 33 3B 04 C6 00 00 00
20.501000 1 200 Rx d 8 44 07 CE 04 3C 00 00 00
20.501500 1 400 Rx d 8 55 02 B7 01 7B 00 00 00
20.502000 1 500 Rx d 8 4D 5B 5C 88 00 00 00 00
20.550000 1 100 Rx d 8 89 1D 8F 85 00 00 00 00
20.550500 1 300 Rx d 8 2C 33 39 04 C5 00 00 00
20.600000 1 100 Rx d 8 89 1C 8F 85 00 00 00 00
20.600500 1 300 Rx d 8 E2 32 37 04 C4 00 00 00
20.601000 1 200 Rx d 8 1A 07 D4 04 3D 00 00 00
20.601500 1 400 Rx d 8 8F 02 B7 01 47 00 00 00
20.650000 1 100 Rx d 8 89 1C 8F 85 00 00 00 00
20.650500 1 300 Rx d 8 96 32 35 04 C4 00 00 00
20.700000 1 100 Rx d 8 89 1C 8F 85 00 00 00 00
20.700500 1 300 Rx d 8 48 32 33 04 C3 00 00 00
20.701000 1 200 Rx d 8 F2 06 DA 04 3E 00 00 00
20.701500 1 400 Rx d 8 C7 02 B7 01 12 00 00 00
20.750000 1 100 Rx d 8 89 1C 8F 86 00 00 00 00
20.750500 1 300 Rx d 8 F9 31 31 04 C3 00 00 00
20.752000 1 500 Rx d 8 4D 5B 5C 88 00 00 00 00
20.800000 1 100 Rx d 8 89 1C 8F 86 00 00 00 00
20.800500 1 300 Rx d 8 A8 31 2F 04 C2 00 00 00
20.801000 1 200 Rx d 8 CC 06 E0 04 3F 00 00 00
20.801500 1 400 Rx d 8 FB 02 B7 01 DE FF 00 00
20.850000 1 100 Rx d 8 89 1C 8F 86 00 00 00 00
20.850500 1 300 Rx d 8 56 31 2D 04 C1 00 00 00
20.900000 1 100 Rx d 8 89 1D 8F 86 00 00 00 00
20.900500 1 300 Rx d 8 02 31 2B 04 C1 00 00 00
20.901000 1 200 Rx d 8 A8 06 E6 04 40 00 00 00
20.901500 1 400 Rx d 8 2C 03 B7 01 A9 FF 00 00
20.950000 1 100 Rx d 8 89 1D 8F 86 00 00 00 00
20.950500 1 300 Rx d 8 AC 30 29 04 C0 00 00 00
21.000000 1 100 Rx d 8 89 1E 8F 86 00 00 00 00
21.000500 1 300 Rx d 8 55 30 28 04 BF 00 00 00
21.001000 1 200 Rx d 8 86 06 EC 04 41 00 00 00
21.001500 1 400 Rx d 8 5A 03 B6 01 75 FF 00 00
21.002000 1 500 Rx d 8 4C 5B 5C 88 00 00 00 00
21.010000 1 7E0 Rx d 8 03 22 F1 90 00 00 00 00
21.014000 1 7E8 Rx d 8 05 62 F1 90 00 54 00 00
21.050000 1 100 Rx d 8 89 1F 8F 86 00 00 00 00
21.050500 1 300 Rx d 8 FC 2F 26 04 BF 00 00 00
21.100000 1 100 Rx d 8 89 1F 8F 86 00 00 00 00
21.100500 1 300 Rx d 8 A2 2F 25 04 BE 00 00 00
21.101000 1 200 Rx d 8 66 06 F2 04 42 00 00 00
21.101500 1 400 Rx d 8 84 03 B6 01 41 FF 00 00
21.150000 1 100 Rx d 8 89 21 8F 86 00 00 00 00
21.150500 1 300 Rx d 8 47 2F 23 04 BE 00 00 00
21.200000 1 100 Rx d 8 88 22 8F 86 00 00 00 00
21.200500 1 300 Rx d 8 EA 2E 22 04 BD 00 00 00
21.201000 1 200 Rx d 8 48 06 F8 04 43 00 00 00
21.201500 1 400 Rx d 8 AB 03 B4 01 0F FF 00 00
21.250000 1 100 Rx d 8 88 23 8F 86 00 00 00 00
21.250500 1 300 Rx d 8 8C 2E 20 04 BC 00 00 00
21.252000 1 500 Rx d 8 4C 5A 5C 88 00 00 00 00
21.300000 1 100 Rx d 8 88 24 8F 86 00 00 00 00
21.300500 1 300 Rx d 8 2D 2E 1F 04 BC 00 00 00
21.301000 1 200 Rx d 8 2C 06 FE 04 44 00 00 00
21.301500 1 400 Rx d 8 CE 03 B3 01 DE FE 00 00
21.350000 1 100 Rx d 8 88 26 8F 86 00 00 00 00
21.350500 1 300 Rx d 8 CC 2D 1D 04 BB 00 00 00
21.400000 1 100 Rx d 8 88 27 8F 86 00 00 00 00
21.400500 1 300 Rx d 8 6B 2D 1C 04 BB 00 00 00
21.401000 1 200 Rx d 8 12 06 04 05 44 00 00 00
21.401500 1 400 Rx d 8 EC 03 B1 01 AE FE 00 00
21.450000 1 100 Rx d 8 88 29 8F 86 00 00 00 00
21.450500 1 300 Rx d 8 08 2D 1B 04 BA 00 00 00
21.500000 1 100 Rx d 8 88 2B 8F 86 00 00 00 00
21.500500 1 300 Rx d 8 A4 2C 1A 04 B9 00 00 00
21.501000 1 200 Rx d 8 F9 05 0A 05 45 00 00 00
21.501500 1 400 Rx d 8 07 04 AF 01 81 FE 00 00
21.502000 1 500 Rx d 8 4C 5A 5C 88 00 00 00 00
21.550000 1 100 Rx d 8 88 2D 8F 87 00 00 00 00
21.550500 1 300 Rx d 8 3F 2C 19 04 B9 00 00 00
21.600000 1 100 Rx d 8 88 2F 8F 87 00 00 00 00
21.600500 1 300 Rx d 8 D9 2B 18 04 B8 00 00 00
21.601000 1 200 Rx d 8 E3 05 10 05 46 00 00 00
21.601500 1 400 Rx d 8 1D 04 AD 01 56 FE 00 00
21.650000 1 100 Rx d 8 88 31 8F 87 00 00 00 00
21.650500 1 300 Rx d 8 72 2B 17 04 B8 00 00 00
21.700000 1 100 Rx d 8 88 33 8F 87 00 00 00 00
21.700500 1 300 Rx d 8 0A 2B 16 04 B7 00 00 00
21.701000 1 200 Rx d 8 CF 05 16 05 46 00 00 00
21.701500 1 400 Rx d 8 2F 04 AA 01 2D FE 00 00
21.750000 1 100 Rx d 8 88 36 8F 87 00 00 00 00
21.750500 1 300 Rx d 8 A1 2A 15 04 B6 00 00 00
21.752000 1 500 Rx d 8 4C 5A 5C 88 00 00 00 00
21.800000 1 100 Rx d 8 88 38 8F 87 00 00 00 00
21.800500 1 300 Rx d 8 38 2A 14 04 B6 00 00 00
21.801000 1 200 Rx d 8 BD 05 1C 05 47 00 00 00
21.801500 1 400 Rx d 8 3D 04 A7 01 07 FE 00 00
21.850000 1 100 Rx d 8 88 3B 8F 87 00 00 00 00
21.850500 1 300 Rx d 8 CD 29 13 04 B5 00 00 00
21.900000 1 100 Rx d 8 88 3D 8F 87 00 00 00 00
21.900500 1 300 Rx d 8 62 29 13 04 B5 00 00 00
21.901000 1 200 Rx d 8 AD 05 22 05 48 00 00 00
21.901500 1 400 Rx d 8 46 04 A4 01 E4 FD 00 00
21.950000 1 100 Rx d 8 88 40 8F 87 00 00 00 00
21.950500 1 300 Rx d 8 F6 28 12 04 B4 00 00 00
22.000000 1 100 Rx d 8 88 42 8F 87 00 00 00 00
22.000500 1 300 Rx d 8 8A 28 11 04 B3 00 00 00
22.001000 1 200 Rx d 8 9F 05 28 05 48 00 00 00
22.001500 1 400 Rx d 8 4B 04 A1 01 C4 FD 00 00
22.002000 1 500 Rx d 8 4B 5A 5C 88 00 00 00 00
22.050000 1 100 Rx d 8 87 45 8F 87 00 00 00 00
22.050500 1 300 Rx d 8 1D 28 11 04 B3 00 00 00
22.100000 1 100 Rx d 8 87 48 8F 87 00 00 00 00
22.100500 1 300 Rx d 8 AF 27 10 04 B2 00 00 00
22.101000 1 200 Rx d 8 94 05 2E 05 49 00 00 00
22.101500 1 400 Rx d 8 4B 04 9D 01 A7 FD 00 00
22.150000 1 100 Rx d 8 87 4B 8F 87 00 00 00 00
22.150500 1 300 Rx d 8 41 27 10 04 B2 00 00 00
22.200000 1 100 Rx d 8 87 4E 8F 87 00 00 00 00
22.200500 1 300 Rx d 8 D3 26 10 04 B1 00 00 00
22.201000 1 200 Rx d 8 8A 05 34 05 49 00 00 00
22.201500 1 400 Rx d 8 47 04 99 01 8D FD 00 00
22.250000 1 100 Rx d 8 87 51 8F 87 00 00 00 00
22.250500 1 300 Rx d 8 64 26 0F 04 B1 00 00 00
22.252000 1 500 Rx d 8 4B 5A 5C 88 00 00 00 00
22.300000 1 100 Rx d 8 87 54 8F 88 00 00 00 00
22.300500 1 300 Rx d 8 F4 25 0F 04 B0 00 00 00
22.301000 1 200 Rx d 8 82 05 3A 05 4A 00 00 00
22.301500 1 400 Rx d 8 3E 04 95 01 78 FD 00 00
22.350000 1 100 Rx d 8 87 57 8F 88 00 00 00 00
22.350500 1 300 Rx d 8 85 25 0F 04 AF 00 00 00
22.400000 1 100 Rx d 8 87 5A 8F 88 00 00 00 00
22.400500 1 300 Rx d 8 15 25 0F 04 AF 00 00 00
22.401000 1 200 Rx d 8 7D 05 40 05 4A 00 00 00
22.401500 1 400 Rx d 8 31 04 91 01 66 FD 00 00
22.450000 1 100 Rx d 8 87 5D 8F 88 00 00 00 00
22.450500 1 300 Rx d 8 A4 24 0F 04 AE 00 00 00
22.500000 1 100 Rx d 8 87 60 8F 88 00 00 00 00
22.500500 1 300 Rx d 8 34 24 0F 04 AE 00 00 00
22.501000 1 200 Rx d 8 79 05 46 05 4B 00 00 00
22.501500 1 400 Rx d 8 1F 04 8C 01 57 FD 00 00
22.502000 1 500 Rx d 8 4B 5A 5C 88 00 00 00 00
22.550000 1 100 Rx d 8 87 64 8F 88 00 00 00 00
22.550500 1 300 Rx d 8 C4 23 0F 04 AD 00 00 00
22.600000 1 100 Rx d 8 87 67 8F 88 00 00 00 00
22.600500 1 300 Rx d 8 53 23 0F 04 AD 00 00 00
22.601000 1 200 Rx d 8 78 05 4C 05 4B 00 00 00
22.601500 1 400 Rx d 8 09 04 88 01 4D FD 00 00
22.650000 1 100 Rx d 8 87 6A 8F 88 00 00 00 00
22.650500 1 300 Rx d 8 E3 22 10 04 AC 00 00 00
22.700000 1 100 Rx d 8 87 6D 8F 88 00 00 00 00
22.700500 1 300 Rx d 8 72 22 10 04 AC 00 00 00
22.701000 1 200 Rx d 8 78 05 52 05 4C 00 00 00
22.701500 1 400 Rx d 8 EF 03 83 01 47 FD 00 00
22.750000 1 100 Rx d 8 87 70 8F 88 00 00 00 00
22.750500 1 300 Rx d 8 02 22 10 04 AB 00 00 00
22.752000 1 500 Rx d 8 4B 5A 5F 88 00 00 00 00
22.800000 1 100 Rx d 8 86 73 8F 88 00 00 00 00
22.800500 1 300 Rx d 8 92 21 11 04 AB 00 00 00
22.801000 1 200 Rx d 8 7B 05 58 05 4C 00 00 00
22.801500 1 400 Rx d 8 D0 03 7D 01 45 FD 00 00
22.850000 1 100 Rx d 8 86 77 8F 88 00 00 00 00
22.850500 1 300 Rx d 8 22 21 11 04 AA 00 00 00
22.900000 1 100 Rx d 8 86 7A 8F 88 00 00 00 00
22.900500 1 300 Rx d 8 B2 20 12 04 AA 00 00 00
22.901000 1 200 Rx d 8 80 05 5E 05 4C 00 00 00
22.901500 1 400 Rx d 8 AE 03 78 01 46 FD 00 00
22.950000 1 100 Rx d 8 86 7D 8F 88 00 00 00 00
22.950500 1 300 Rx d 8 42 20 12 04 A9 00 00 00
23.000000 1 100 Rx d 8 86 80 8F 89 00 00 00 00
23.000500 1 300 Rx d 8 D3 1F 13 04 A8 00 00 00
23.001000 1 200 Rx d 8 87 05 64 05 4C 00 00 00
23.001500 1 400 Rx d 8 87 03 72 01 4C FD 00 00
23.002000 1 500 Rx d 8 4B 5A 64 88 00 00 00 00
23.050000 1 100 Rx d 8 86 83 8F 89 00 00 00 00
23.050500 1 300 Rx d 8 64 1F 14 04 A8 00 00 00
23.100000 1 100 Rx d 8 86 86 8F 89 00 00 00 00
23.100500 1 300 Rx d 8 F6 1E 15 04 A7 00 00 00
23.101000 1 200 Rx d 8 90 05 6A 05 4D 00 00 00
23.101500 1 400 Rx d 8 5D 03 6C 01 56 FD 00 00
23.150000 1 100 Rx d 8 86 89 8F 89 00 00 00 00
23.150500 1 300 Rx d 8 87 1E 15 04 A7 00 00 00
23.200000 1 100 Rx d 8 86 8B 8F 89 00 00 00 00
23.200500 1 300 Rx d 8 1A 1E 16 04 A6 00 00 00
23.201000 1 200 Rx d 8 9B 05 70 05 4D 00 00 00
23.201500 1 400 Rx d 8 30 03 66 01 63 FD 00 00
23.250000 1 100 Rx d 8 86 8E 8F 89 00 00 00 00
23.250500 1 300 Rx d 8 AD 1D 17 04 A6 00 00 00
23.252000 1 500 Rx d 8 4A 5A 6A 87 00 00 00 00
23.300000 1 100 Rx d 8 86 91 8F 89 00 00 00 00
23.300500 1 300 Rx d 8 41 1D 18 04 A5 00 00 00
23.301000 1 200 Rx d 8 A8 05 76 05 4D 00 00 00
23.301500 1 400 Rx d 8 FF 02 60 01 75 FD 00 00
23.350000 1 100 Rx d 8 86 93 8F 89 00 00 00 00
23.350500 1 300 Rx d 8 D5 1C 19 04 A5 00 00 00
23.400000 1 100 Rx d 8 86 96 8F 89 00 00 00 00
23.400500 1 300 Rx d 8 6A 1C 1B 04 A4 00 00 00
23.401000 1 200 Rx d 8 B7 05 7C 05 4D 00 00 00
23.401500 1 400 Rx d 8 CB 02 5A 01 8A FD 00 00
23.450000 1 100 Rx d 8 86 99 8F 89 00 00 00 00
23.450500 1 300 Rx d 8 00 1C 1C 04 A4 00 00 00
23.500000 1 100 Rx d 8 86 9B 8F 89 00 00 00 00
23.500500 1 300 Rx d 8 96 1B 1D 04 A4 00 00 00
23.501000 1 200 Rx d 8 C8 05 82 05 4D 00 00 00
23.501500 1 400 Rx d 8 94 02 53 01 A3 FD 00 00
23.502000 1 500 Rx d 8 4A 5A 6F 87 00 00 00 00
23.550000 1 100 Rx d 8 85 9D 8F 89 00 00 00 00
23.550500 1 300 Rx d 8 2E 1B 1E 04 A3 00 00 00
23.600000 1 100 Rx d 8 85 9F 8F 89 00 00 00 00
23.600500 1 300 Rx d 8 C6 1A 20 04 A3 00 00 00
23.601000 1 200 Rx d 8 DB 05 88 05 4D 00 00 00
23.601500 1 400 Rx d 8 5A 02 4D 01 BF FD 00 00
23.650000 1 100 Rx d 8 85 A2 8F 89 00 00 00 00
23.650500 1 300 Rx d 8 5F 1A 21 04 A2 00 00 00
23.700000 1 100 Rx d 8 85 A4 8F 89 00 00 00 00
23.700500 1 300 Rx d 8 FA 19 23 04 A2 00 00 00
23.701000 1 200 Rx d 8 F1 05 8E 05 4D 00 00 00
23.701500 1 400 Rx d 8 1E 02 46 01 DE FD 00 00
23.750000 1 100 Rx d 8 85 A5 8F 8A 00 00 00 00
23.750500 1 300 Rx d 8 95 19 24 04 A1 00 00 00
23.752000 1 500 Rx d 8 4A 5A 75 87 00 00 00 00
23.800000 1 100 Rx d 8 85 A7 8F 8A 00 00 00 00
23.800500 1 300 Rx d 8 31 19 26 04 A1 00 00 00
23.801000 1 200 Rx d 8 08 06 94 05 4D 00 00 00
23.801500 1 400 Rx d 8 DF 01 3F 01 01 FE 00 00
23.850000 1 100 Rx d 8 85 A9 8F 8A 00 00 00 00
23.850500 1 300 Rx d 8 CF 18 27 04 A0 00 00 00
23.900000 1 100 Rx d 8 85 AB 8F 8A 00 00 00 00
23.900500 1 300 Rx d 8 6D 18 29 04 A0 00 00 00
23.901000 1 200 Rx d 8 21 06 9A 05 4D 00 00 00
23.901500 1 400 Rx d 8 9F 01 38 01 27 FE 00 00
23.950000 1 100 Rx d 8 85 AC 8F 8A 00 00 00 00
23.950500 1 300 Rx d 8 0D 18 2B 04 9F 00 00 00
24.000000 1 100 Rx d 8 85 AD 8F 8A 00 00 00 00
24.000500 1 300 Rx d 8 AE 17 2D 05 9F 00 00 00
24.001000 1 200 Rx d 8 3D 06 A0 05 4D 00 00 00
24.001500 1 400 Rx d 8 5D 01 31 01 4F FE 00 00
24.002000 1 500 Rx d 8 4A 5A 7A 87 00 00 00 00
24.050000 1 100 Rx d 8 85 AF 8F 8A 00 00 00 00
24.050500 1 300 Rx d 8 50 17 2E 05 9F 00 00 00
24.100000 1 100 Rx d 8 85 B0 8F 8A 00 00 00 00
24.100500 1 300 Rx d 8 F4 16 30 05 9E 00 00 00
24.101000 1 200 Rx d 8 5A 06 A6 05 4C 00 00 00
24.101500 1 400 Rx d 8 19 01 2A 01 7A FE 00 00
24.150000 1 100 Rx d 8 85 B1 8F 8A 00 00 00 00
24.150500 1 300 Rx d 8 99 16 32 05 9E 00 00 00
24.200000 1 100 Rx d 8 84 B2 8F 8A 00 00 00 00
24.200500 1 300 Rx d 8 3F 16 34 05 9D 00 00 00
24.201000 1 200 Rx d 8 79 06 AC 05 4C 00 00 00
24.201500 1 400 Rx d 8 D5 00 23 01 A7 FE 00 00
24.250000 1 100 Rx d 8 84 B2 8F 8A 00 00 00 00
24.250500 1 300 Rx d 8 E7 15 36 05 9D 00 00 00
24.252000 1 500 Rx d 8 49 59 7F 87 00 00 00 00
24.300000 1 100 Rx d 8 84 B3 8F 8A 00 00 00 00
24.300500 1 300 Rx d 8 90 15 38 05 9C 00 00 00
24.301000 1 200 Rx d 8 9B 06 B2 05 4C 00 00 00
24.301500 1 400 Rx d 8 8F 00 1B 01 D6 FE 00 00
24.350000 1 100 Rx d 8 84 B3 8F 8A 00 00 00 00
24.350500 1 300 Rx d 8 3B 15 3A 05 9C 00 00 00
24.400000 1 100 Rx d 8 84 B4 8F 8A 00 00 00 00
24.400500 1 300 Rx d 8 E7 14 3C 05 9C 00 00 00
24.401000 1 200 Rx d 8 BE 06 B8 05 4C 00 00 00
24.401500 1 400 Rx d 8 49 00 14 01 07 FF 00 00
24.450000 1 100 Rx d 8 84 B4 8F 8A 00 00 00 00
24.450500 1 300 Rx d 8 95 14 3E 05 9B 00 00 00
24.500000 1 100 Rx d 8 84 B4 8F 8A 00 00 00 00
24.500500 1 300 Rx d 8 44 14 41 05 9B 00 00 00
24.501000 1 200 Rx d 8 E3 06 BE 05 4B 00 00 00
24.501500 1 400 Rx d 8 03 00 0C 01 39 FF 00 00
24.502000 1 500 Rx d 8 49 59 84 87 00 00 00 00
24.550000 1 100 Rx d 8 84 B4 8F 8B 00 00 00 00
24.550500 1 300 Rx d 8 F5 13 43 05 9A 00 00 00
24.600000 1 100 Rx d 8 84 B4 8E 8B 00 00 00 00
24.600500 1 300 Rx d 8 A8 13 45 05 9A 00 00 00
24.601000 1 200 Rx d 8 0A 07 C4 05 4B 00 00 00
24.601500 1 400 Rx d 8 BD FF 05 01 6C FF 00 00
24.650000 1 100 Rx d 8 84 B3 8E 8B 00 00 00 00
24.650500 1 300 Rx d 8 5D 13 47 05 9A 00 00 00
24.700000 1 100 Rx d 8 84 B3 8E 8B 00 00 00 00
24.700500 1 300 Rx d 8 13 13 4A 05 99 00 00 00
24.701000 1 200 Rx d 8 33 07 CA 05 4B 00 00 00
24.701500 1 400 Rx d 8 77 FF FD 00 A1 FF 00 00
24.750000 1 100 Rx d 8 84 B2 8E 8B 00 00 00 00
24.750500 1 300 Rx d 8 CB 12 4C 05 99 00 00 00
24.752000 1 500 Rx d 8 49 59 89 87 00 00 00 00
24.800000 1 100 Rx d 8 84 B2 8E 8B 00 00 00 00
24.800500 1 300 Rx d 8 85 12 4E 05 99 00 00 00
24.801000 1 200 Rx d 8 5E 07 D0 05 4A 00 00 00
24.801500 1 400 Rx d 8 31 FF F6 00 D5 FF 00 00
24.850000 1 100 Rx d 8 83 B1 8E 8B 00 00 00 00
24.850500 1 300 Rx d 8 41 12 51 05 98 00 00 00
24.900000 1 100 Rx d 8 83 B0 8E 8B 00 00 00 00
24.900500 1 300 Rx d 8 FE 11 53 05 98 00 00 00
24.901000 1 200 Rx d 8 8B 07 D6 05 4A 00 00 00
24.901500 1 400 Rx d 8 ED FE F0 00 09 00 00 00
24.950000 1 100 Rx d 8 83 AF 8E 8B 00 00 00 00
24.950500 1 300 Rx d 8 BE 11 55 05 97 00 00 00
25.000000 1 100 Rx d 8 83 AE 8E 8B 00 00 00 00
25.000500 1 300 Rx d 8 7F 11 58 05 97 00 00 00
25.001000 1 200 Rx d 8 BA 07 DC 05 49 00 00 00
25.001500 1 400 Rx d 8 A9 FE F0 00 3E 00 00 00
25.002000 1 500 Rx d 8 48 59 8D 87 00 00 00 00
25.050000 1 100 Rx d 8 83 AC 8E 8B 00 00 00 00
25.050500 1 300 Rx d 8 43 11 5A 05 97 00 00 00
25.100000 1 100 Rx d 8 83 AB 8E 8B 00 00 00 00
25.100500 1 300 Rx d 8 08 11 5D 05 96 00 00 00
25.101000 1 200 Rx d 8 EA 07 E2 05 49 00 00 00
25.101500 1 400 Rx d 8 67 FE F0 00 73 00 00 00
25.150000 1 100 Rx d 8 83 A9 8E 8B 00 00 00 00
25.150500 1 300 Rx d 8 D0 10 5F 05 96 00 00 00
25.200000 1 100 Rx d 8 83 A8 8E 8B 00 00 00 00
25.200500 1 300 Rx d 8 99 10 62 05 96 00 00 00
25.201000 1 200 Rx d 8 1D 08 E8 05 48 00 00 00
25.201500 1 400 Rx d 8 26 FE F0 00 A7 00 00 00
25.250000 1 100 Rx d 8 83 A6 8E 8B 00 00 00 00
25.250500 1 300 Rx d 8 65 10 64 05 95 00 00 00
25.252000 1 500 Rx d 8 48 59 91 87 00 00 00 00
25.300000 1 100 Rx d 8 83 A4 8E 8B 00 00 00 00
25.300500 1 300 Rx d 8 32 10 67 05 95 00 00 00
25.301000 1 200 Rx d 8 51 08 EE 05 47 00 00 00
25.301500 1 400 Rx d 8 E8 FD F0 00 DA 00 00 00
25.350000 1 100 Rx d 8 83 A2 8E 8B 00 00 00 00
25.350500 1 300 Rx d 8 02 10 69 05 95 00 00 00
25.400000 1 100 Rx d 8 83 A0 8E 8B 00 00 00 00
25.400500 1 300 Rx d 8 D4 0F 6C 05 95 00 00 00
25.401000 1 200 Rx d 8 87 08 F4 05 47 00 00 00
25.401500 1 400 Rx d 8 AB FD F0 00 0B 01 00 00
25.450000 1 100 Rx d 8 82 9E 8E 8C 00 00 00 00
25.450500 1 300 Rx d 8 A8 0F 6E 05 94 00 00 00
25.500000 1 100 Rx d 8 82 9B 8E 8C 00 00 00 00
25.500500 1 300 Rx d 8 7E 0F 71 05 94 00 00 00
25.501000 1 200 Rx d 8 BE 08 FA 05 46 00 00 00
25.501500 1 400 Rx d 8 71 FD F0 00 3C 01 00 00
25.502000 1 500 Rx d 8 48 59 95 87 00 00 00 00
25.550000 1 100 Rx d 8 82 99 8E 8C 00 00 00 00
25.550500 1 300 Rx d 8 56 0F 74 05 94 00 00 00
25.600000 1 100 Rx d 8 82 96 8E 8C 00 00 00 00
25.600500 1 300 Rx d 8 31 0F 76 05 93 00 00 00
25.601000 1 200 Rx d 8 F8 08 00 06 45 00 00 00
25.601500 1 400 Rx d 8 3A FD F0 00 6A 01 00 00
25.650000 1 100 Rx d 8 82 94 8E 8C 00 00 00 00
25.650500 1 300 Rx d 8 0E 0F 79 05 93 00 00 00
25.700000 1 100 Rx d 8 82 91 8E 8C 00 00 00 00
25.700500 1 300 Rx d 8 ED 0E 7B 05 93 00 00 00
25.701000 1 200 Rx d 8 33 09 06 06 44 00 00 00
25.701500 1 400 Rx d 8 06 FD F0 00 96 01 00 00
25.750000 1 100 Rx d 8 82 8F 8E 8C 00 00 00 00
25.750500 1 300 Rx d 8 CE 0E 7E 05 92 00 00 00
25.752000 1 500 Rx d 8 48 59 99 87 00 00 00 00
25.800000 1 100 Rx d 8 82 8C 8E 8C 00 00 00 00
25.800500 1 300 Rx d 8 B2 0E 80 05 92 00 00 00
25.801000 1 200 Rx d 8 6F 09 0C 06 44 00 00 00
25.801500 1 400 Rx d 8 D4 FC F0 00 C0 01 00 00
25.850000 1 100 Rx d 8 82 89 8E 8C 00 00 00 00
25.850500 1 300 Rx d 8 97 0E 83 05 92 00 00 00
25.900000 1 100 Rx d 8 82 86 8E 8C 00 00 00 00
25.900500 1 300 Rx d 8 7F 0E 86 05 92 00 00 00
25.901000 1 200 Rx d 8 AE 09 12 06 43 00 00 00
25.901500 1 400 Rx d 8 A7 FC F0 00 E8 01 00 00
25.950000 1 100 Rx d 8 82 83 8E 8C 00 00 00 00
25.950500 1 300 Rx d 8 6A 0E 88 05 91 00 00 00
26.000000 1 100 Rx d 8 82 80 8E 8C 00 00 00 00
26.000500 1 300 Rx d 8 56 0E 8B 05 91 00 00 00
26.001000 1 200 Rx d 8 EE 09 18 06 42 00 00 00
26.001500 1 400 Rx d 8 7C FC F0 00 0C 02 00 00
26.002000 1 500 Rx d 8 47 59 9D 87 00 00 00 00
26.010000 1 7E0 Rx d 8 03 22 F4 05 00 00 00 00
26.014000 1 7E8 Rx d 8 04 62 F4 05 37 00 00 00
26.050000 1 100 Rx d 8 81 7D 8E 8C 00 00 00 00
26.050500 1 300 Rx d 8 45 0E 8D 05 91 00 00 00
26.100000 1 100 Rx d 8 81 7A 8E 8C 00 00 00 00
26.100500 1 300 Rx d 8 37 0E 90 05 91 00 00 00
26.101000 1 200 Rx d 8 2F 0A 1E 06 41 00 00 00
26.101500 1 400 Rx d 8 56 FC F0 00 2E 02 00 00
26.150000 1 100 Rx d 8 81 77 8E 8C 00 00 00 00
26.150500 1 300 Rx d 8 2A 0E 92 05 90 00 00 00
26.200000 1 100 Rx d 8 81 74 8E 8C 00 00 00 00
26.200500 1 300 Rx d 8 20 0E 95 05 90 00 00 00
26.201000 1 200 Rx d 8 72 0A 24 06 40 00 00 00
26.201500 1 400 Rx d 8 33 FC F0 00 4C 02 00 00
26.250000 1 100 Rx d 8 81 71 8E 8C 00 00 00 00
26.250500 1 300 Rx d 8 19 0E 97 05 90 00 00 00
26.252000 1 500 Rx d 8 47 59 A0 87 00 00 00 00
26.300000 1 100 Rx d 8 81 6E 8E 8C 00 00 00 00
26.300500 1 300 Rx d 8 13 0E 9A 05 90 00 00 00
26.301000 1 200 Rx d 8 B7 0A 2A 06 3F 00 00 00
26.301500 1 400 Rx d 8 14 FC F0 00 67 02 00 00
26.350000 1 100 Rx d 8 81 6A 8E 8C 00 00 00 00
26.350500 1 300 Rx d 8 10 0E 9C 05 90 00 00 00
26.400000 1 100 Rx d 8 81 67 8E 8C 00 00 00 00
26.400500 1 300 Rx d 8 10 0E 9E 05 8F 00 00 00
26.401000 1 200 Rx d 8 FD 0A 30 06 3E 00 00 00
26.401500 1 400 Rx d 8 F9 FB F0 00 7F 02 00 00
26.450000 1 100 Rx d 8 81 64 8E 8C 00 00 00 00
26.450500 1 300 Rx d 8 11 0E A1 05 8F 00 00 00
26.500000 1 100 Rx d 8 81 61 8E 8C 00 00 00 00
26.500500 1 300 Rx d 8 15 0E A3 05 8F 00 00 00
26.501000 1 200 Rx d 8 45 0B 36 06 3E 00 00 00
26.501500 1 400 Rx d 8 E3 FB F0 00 92 02 00 00
26.502000 1 500 Rx d 8 47 58 A2 86 00 00 00 00
26.550000 1 100 Rx d 8 81 5E 8E 8C 00 00 00 00
26.550500 1 300 Rx d 8 1C 0E A6 05 8F 00 00 00
26.600000 1 100 Rx d 8 81 5B 8E 8C 00 00 00 00
26.600500 1 300 Rx d 8 24 0E A8 05 8F 00 00 00
26.601000 1 200 Rx d 8 8E 0B 3C 06 3D 00 00 00
26.601500 1 400 Rx d 8 D1 FB F0 00 A2 02 00 00
26.650000 1 100 Rx d 8 80 58 8E 8C 00 00 00 00
26.650500 1 300 Rx d 8 2F 0E AA 05 8E 00 00 00
26.700000 1 100 Rx d 8 80 55 8E 8D 00 00 00 00
26.700500 1 300 Rx d 8 3D 0E AC 05 8E 00 00 00
26.701000 1 200 Rx d 8 D8 0B 42 06 3C 00 00 00
26.701500 1 400 Rx d 8 C3 FB F0 00 AE 02 00 00
26.750000 1 100 Rx d 8 80 52 8E 8D 00 00 00 00
26.750500 1 300 Rx d 8 4C 0E AF 05 8E 00 00 00
26.752000 1 500 Rx d 8 47 58 A5 86 00 00 00 00
26.800000 1 100 Rx d 8 80 4E 8E 8D 00 00 00 00
26.800500 1 300 Rx d 8 5E 0E B1 05 8E 00 00 00
26.801000 1 200 Rx d 8 24 0C 48 06 3B 00 00 00
26.801500 1 400 Rx d 8 BA FB F0 00 B7 02 00 00
26.850000 1 100 Rx d 8 80 4C 8E 8D 00 00 00 00
26.850500 1 300 Rx d 8 73 0E B3 05 8E 00 00 00
26.900000 1 100 Rx d 8 80 49 8E 8D 00 00 00 00
26.900500 1 300 Rx d 8 89 0E B5 05 8E 00 00 00
26.901000 1 200 Rx d 8 71 0C 4E 06 39 00 00 00
26.901500 1 400 Rx d 8 B5 FB F0 00 BB 02 00 00
26.950000 1 100 Rx d 8 80 46 8E 8D 00 00 00 00
26.950500 1 300 Rx d 8 A2 0E B7 05 8D 00 00 00
27.000000 1 100 Rx d 8 80 43 8E 8D 00 00 00 00
27.000500 1 300 Rx d 8 BD 0E B9 05 8D 00 00 00
27.001000 1 200 Rx d 8 BF 0C 54 06 38 00 00 00
27.001500 1 400 Rx d 8 B5 FB F0 00 BB 02 00 00
27.002000 1 500 Rx d 8 46 58 A7 86 00 00 00 00
27.050000 1 100 Rx d 8 80 40 8E 8D 00 00 00 00
27.050500 1 300 Rx d 8 DB 0E BB 05 8D 00 00 00
27.100000 1 100 Rx d 8 80 3E 8E 8D 00 00 00 00
27.100500 1 300 Rx d 8 FA 0E BD 05 8D 00 00 00
27.101000 1 200 Rx d 8 0F 0D 5A 06 37 00 00 00
27.101500 1 400 Rx d 8 B9 FB F0 00 B7 02 00 00
27.150000 1 100 Rx d 8 80 3B 8E 8D 00 00 00 00
27.150500 1 300 Rx d 8 1C 0F BF 05 8D 00 00 00
27.200000 1 100 Rx d 8 7F 38 8E 8D 00 00 00 00
27.200500 1 300 Rx d 8 41 0F C1 05 8D 00 00 00
27.201000 1 200 Rx d 8 60 0D 60 06 36 00 00 00
27.201500 1 400 Rx d 8 C2 FB F0 00 AF 02 00 00
27.250000 1 100 Rx d 8 7F 36 8E 8D 00 00 00 00
27.250500 1 300 Rx d 8 67 0F C3 05 8D 00 00 00
27.252000 1 500 Rx d 8 46 58 A9 86 00 00 00 00
27.300000 1 100 Rx d 8 7F 34 8E 8D 00 00 00 00
27.300500 1 300 Rx d 8 90 0F C4 05 8D 00 00 00
27.301000 1 200 Rx d 8 B2 0D 66 06 35 00 00 00
27.301500 1 400 Rx d 8 CF FB F0 00 A4 02 00 00
27.350000 1 100 Rx d 8 7F 31 8E 8D 00 00 00 00
27.350500 1 300 Rx d 8 BA 0F C6 05 8C 00 00 00
27.400000 1 100 Rx d 8 7F 2F 8E 8D 00 00 00 00
27.400500 1 300 Rx d 8 E7 0F C8 05 8C 00 00 00
27.401000 1 200 Rx d 8 06 0E 6C 06 34 00 00 00
27.401500 1 400 Rx d 8 E1 FB F0 00 94 02 00 00
27.450000 1 100 Rx d 8 7F 2D 8D 8D 00 00 00 00
27.450500 1 300 Rx d 8 16 10 CA 05 8C 00 00 00
27.500000 1 100 Rx d 8 7F 2B 8D 8D 00 00 00 00
27.500500 1 300 Rx d 8 47 10 CB 05 8C 00 00 00
27.501000 1 200 Rx d 8 5A 0E 72 06 33 00 00 00
27.501500 1 400 Rx d 8 F7 FB F0 00 81 02 00 00
27.502000 1 500 Rx d 8 46 58 AA 86 00 00 00 00
27.550000 1 100 Rx d 8 7F 29 8D 8D 00 00 00 00
27.550500 1 300 Rx d 8 7B 10 CD 05 8C 00 00 00
27.600000 1 100 Rx d 8 7F 28 8D 8D 00 00 00 00
27.600500 1 300 Rx d 8 B0 10 CE 05 8C 00 00 00
27.601000 1 200 Rx d 8 B0 0E 78 06 32 00 00 00
27.601500 1 400 Rx d 8 11 FC F0 00 6A 02 00 00
27.650000 1 100 Rx d 8 7F 26 8D 8D 00 00 00 00
27.650500 1 300 Rx d 8 E7 10 D0 05 8C 00 00 00
27.700000 1 100 Rx d 8 7F 25 8D 8D 00 00 00 00
27.700500 1 300 Rx d 8 21 11 D1 05 8C 00 00 00
27.701000 1 200 Rx d 8 06 0F 7E 06 31 00 00 00
27.701500 1 400 Rx d 8 30 FC F0 00 4F 02 00 00
27.750000 1 100 Rx d 8 7E 23 8D 8D 00 00 00 00
27.750500 1 300 Rx d 8 5C 11 D2 05 8C 00 00 00
27.752000 1 500 Rx d 8 46 58 AB 86 00 00 00 00
27.800000 1 100 Rx d 8 7E 22 8D 8D 00 00 00 00
27.800500 1 300 Rx d 8 9A 11 D4 05 8C 00 00 00
27.801000 1 200 Rx d 8 5E 0F 84 06 30 00 00 00
27.801500 1 400 Rx d 8 52 FC F0 00 31 02 00 00
27.850000 1 100 Rx d 8 7E 21 8D 8D 00 00 00 00
27.850500 1 300 Rx d 8 D9 11 D5 05 8C 00 00 00
27.900000 1 100 Rx d 8 7E 20 8D 8D 00 00 00 00
27.900500 1 300 Rx d 8 1A 12 D6 05 8C 00 00 00
27.901000 1 200 Rx d 8 B7 0F 8A 06 2E 00 00 00
27.901500 1 400 Rx d 8 78 FC F0 00 10 02 00 00
27.950000 1 100 Rx d 8 7E 1F 8D 8D 00 00 00 00
27.950500 1 300 Rx d 8 5D 12 D7 05 8C 00 00 00
28.000000 1 100 Rx d 8 7E 1E 8D 8D 00 00 00 00
28.000500 1 300 Rx d 8 A3 12 D8 05 8C 00 00 00
28.001000 1 200 Rx d 8 10 10 90 06 2D 00 00 00
28.001500 1 400 Rx d 8 A2 FC F0 00 EB 01 00 00
28.002000 1 500 Rx d 8 45 58 AC 86 00 00 00 00
28.050000 1 100 Rx d 8 7E 1D 8D 8D 00 00 00 00
28.050500 1 300 Rx d 8 E9 12 D9 05 8C 00 00 00
28.100000 1 100 Rx d 8 7E 1D 8D 8D 00 00 00 00
28.100500 1 300 Rx d 8 32 13 DA 05 8C 00 00 00
28.101000 1 200 Rx d 8 6B 10 96 06 2C 00 00 00
28.101500 1 400 Rx d 8 D0 FC F0 00 C4 01 00 00
28.150000 1 100 Rx d 8 7E 1C 8D 8D 00 00 00 00
28.150500 1 300 Rx d 8 7D 13 DB 05 8C 00 00 00
28.200000 1 100 Rx d 8 7E 1C 8D 8D 00 00 00 00
28.200500 1 300 Rx d 8 C9 13 DC 05 8C 00 00 00
28.201000 1 200 Rx d 8 C6 10 9C 06 2B 00 00 00
28.201500 1 400 Rx d 8 01 FD F0 00 9A 01 00 00
28.250000 1 100 Rx d 8 7E 1C 8D 8D 00 00 00 00
28.250500 1 300 Rx d 8 17 14 DD 05 8C 00 00 00
28.252000 1 500 Rx d 8 45 58 AC 86 00 00 00 00
28.300000 1 100 Rx d 8 7D 1C 8D 8D 00 00 00 00
28.300500 1 300 Rx d 8 66 14 DD 05 8C 00 00 00
28.301000 1 200 Rx d 8 22 11 A2 06 2A 00 00 00
28.301500 1 400 Rx d 8 35 FD F0 00 6E 01 00 00
28.350000 1 100 Rx d 8 7D 1C 8D 8D 00 00 00 00
28.350500 1 300 Rx d 8 B7 14 DE 05 8C 00 00 00
28.400000 1 100 Rx d 8 7D 1C 8D 8D 00 00 00 00
28.400500 1 300 Rx d 8 0A 15 DF 05 8C 00 00 00
28.401000 1 200 Rx d 8 7F 11 A8 06 29 00 00 00
28.401500 1 400 Rx d 8 6C FD F0 00 40 01 00 00
28.450000 1 100 Rx d 8 7D 1D 8D 8D 00 00 00 00
28.450500 1 300 Rx d 8 5F 15 DF 05 8C 00 00 00
28.500000 1 100 Rx d 8 7D 1D 8D 8D 00 00 00 00
28.500500 1 300 Rx d 8 B4 15 E0 05 8C 00 00 00
28.501000 1 200 Rx d 8 DD 11 AE 06 27 00 00 00
28.501500 1 400 Rx d 8 A5 FD F0 00 10 01 00 00
28.502000 1 500 Rx d 8 45 57 AC 86 00 00 00 00
28.550000 1 100 Rx d 8 7D 1E 8D 8D 00 00 00 00
28.550500 1 300 Rx d 8 0C 16 E0 05 8C 00 00 00
28.600000 1 100 Rx d 8 7D 1F 8D 8D 00 00 00 00
28.600500 1 300 Rx d 8 65 16 E0 05 8C 00 00 00
28.601000 1 200 Rx d 8 3B 12 B4 06 26 00 00 00
28.601500 1 400 Rx d 8 E2 FD F0 00 DF 00 00 00
28.650000 1 100 Rx d 8 7D 20 8D 8D 00 00 00 00
28.650500 1 300 Rx d 8 BF 16 E1 05 8C 00 00 00
28.700000 1 100 Rx d 8 7D 21 8D 8D 00 00 00 00
28.700500 1 300 Rx d 8 1B 17 E1 05 8C 00 00 00
28.701000 1 200 Rx d 8 9B 12 BA 06 25 00 00 00
28.701500 1 400 Rx d 8 20 FE F0 00 AC 00 00 00
28.750000 1 100 Rx d 8 7D 22 8D 8D 00 00 00 00
28.750500 1 300 Rx d 8 78 17 E1 05 8C 00 00 00
28.752000 1 500 Rx d 8 45 57 AB 85 00 00 00 00
28.800000 1 100 Rx d 8 7D 23 8D 8D 00 00 00 00
28.800500 1 300 Rx d 8 D6 17 E1 05 8C 00 00 00
28.801000 1 200 Rx d 8 FA 12 C0 06 24 00 00 00
28.801500 1 400 Rx d 8 60 FE F0 00 78 00 00 00
28.850000 1 100 Rx d 8 7C 25 8D 8D 00 00 00 00
28.850500 1 300 Rx d 8 36 18 E1 05 8C 00 00 00
28.900000 1 100 Rx d 8 7C 26 8D 8D 00 00 00 00
28.900500 1 300 Rx d 8 96 18 E1 05 8C 00 00 00
28.901000 1 200 Rx d 8 5B 13 C6 06 23 00 00 00
28.901500 1 400 Rx d 8 A2 FE F0 00 43 00 00 00
28.950000 1 100 Rx d 8 7C 28 8D 8D 00 00 00 00
28.950500 1 300 Rx d 8 F8 18 E1 05 8C 00 00 00
29.000000 1 100 Rx d 8 7C 29 8D 8D 00 00 00 00
29.000500 1 300 Rx d 8 5B 19 E1 05 8C 00 00 00
29.001000 1 200 Rx d 8 BB 13 CC 06 22 00 00 00
29.001500 1 400 Rx d 8 E6 FE F0 00 0F 00 00 00
29.002000 1 500 Rx d 8 44 57 AA 85 00 00 00 00
29.050000 1 100 Rx d 8 7C 2B 8D 8D 00 00 00 00
29.050500 1 300 Rx d 8 C0 19 E0 05 8C 00 00 00
29.100000 1 100 Rx d 8 7C 2D 8D 8D 00 00 00 00
29.100500 1 300 Rx d 8 25 1A E0 05 8C 00 00 00
29.101000 1 200 Rx d 8 1D 14 D2 06 20 00 00 00
29.101500 1 400 Rx d 8 2B FF F0 00 DB FF 00 00
29.150000 1 100 Rx d 8 7C 2F 8D 8D 00 00 00 00
29.150500 1 300 Rx d 8 8B 1A E0 05 8C 00 00 00
29.200000 1 100 Rx d 8 7C 32 8D 8D 00 00 00 00
29.200500 1 300 Rx d 8 F2 1A DF 05 8C 00 00 00
29.201000 1 200 Rx d 8 7F 14 D8 06 1F 00 00 00
29.201500 1 400 Rx d 8 70 FF F0 00 A6 FF 00 00
29.250000 1 100 Rx d 8 7C 34 8D 8D 00 00 00 00
29.250500 1 300 Rx d 8 5A 1B DF 05 8D 00 00 00
29.252000 1 500 Rx d 8 44 57 A9 85 00 00 00 00
29.300000 1 100 Rx d 8 7C 36 8D 8D 00 00 00 00
29.300500 1 300 Rx d 8 C3 1B DE 05 8D 00 00 00
29.301000 1 200 Rx d 8 E1 14 DE 06 1E 00 00 00
29.301500 1 400 Rx d 8 B6 FF F0 00 71 FF 00 00
29.350000 1 100 Rx d 8 7C 39 8D 8D 00 00 00 00
29.350500 1 300 Rx d 8 2D 1C DE 05 8D 00 00 00
29.400000 1 100 Rx d 8 7B 3B 8D 8D 00 00 00 00
29.400500 1 300 Rx d 8 97 1C DD 05 8D 00 00 00
29.401000 1 200 Rx d 8 43 15 E4 06 1D 00 00 00
29.401500 1 400 Rx d 8 FD FF F0 00 3E FF 00 00
29.450000 1 100 Rx d 8 7B 3E 8C 8D 00 00 00 00
29.450500 1 300 Rx d 8 03 1D DC 05 8D 00 00 00
29.500000 1 100 Rx d 8 7B 40 8C 8D 00 00 00 00
29.500500 1 300 Rx d 8 6F 1D DC 05 8D 00 00 00
29.501000 1 200 Rx d 8 A6 15 EA 06 1C 00 00 00
29.501500 1 400 Rx d 8 42 00 F0 00 0C FF 00 00
29.502000 1 500 Rx d 8 44 57 A7 85 00 00 00 00
29.550000 1 100 Rx d 8 7B 43 8C 8D 00 00 00 00
29.550500 1 300 Rx d 8 DB 1D DB 05 8D 00 00 00
29.600000 1 100 Rx d 8 7B 46 8C 8D 00 00 00 00
29.600500 1 300 Rx d 8 48 1E DA 05 8D 00 00 00
29.601000 1 200 Rx d 8 09 16 F0 06 1B 00 00 00
29.601500 1 400 Rx d 8 88 00 F0 00 DB FE 00 00
29.650000 1 100 Rx d 8 7B 49 8C 8D 00 00 00 00
29.650500 1 300 Rx d 8 B6 1E D9 05 8E 00 00 00
29.700000 1 100 Rx d 8 7B 4C 8C 8D 00 00 00 00
29.700500 1 300 Rx d 8 24 1F D8 05 8E 00 00 00
29.701000 1 200 Rx d 8 6D 16 F6 06 1A 00 00 00
29.701500 1 400 Rx d 8 CE 00 F0 00 AB FE 00 00
29.750000 1 100 Rx d 8 7B 4F 8C 8D 00 00 00 00
29.750500 1 300 Rx d 8 93 1F D7 05 8E 00 00 00
29.752000 1 500 Rx d 8 43 57 A5 85 00 00 00 00
29.800000 1 100 Rx d 8 7B 52 8C 8D 00 00 00 00
29.800500 1 300 Rx d 8 02 20 D6 05 8E 00 00 00
29.801000 1 200 Rx d 8 D1 16 FC 06 19 00 00 00
29.801500 1 400 Rx d 8 13 01 F0 00 7E FE 00 00
29.850000 1 100 Rx d 8 7B 55 8C 8D 00 00 00 00
29.850500 1 300 Rx d 8 72 20 D4 05 8E 00 00 00
29.900000 1 100 Rx d 8 7A 58 8C 8C 00 00 00 00
29.900500 1 300 Rx d 8 E1 20 D3 05 8E 00 00 00
29.901000 1 200 Rx d 8 34 17 02 07 18 00 00 00
29.901500 1 400 Rx d 8 57 01 F0 00 53 FE 00 00
29.950000 1 100 Rx d 8 7A 5B 8C 8C 00 00 00 00
29.950500 1 300 Rx d 8 51 21 D2 05 8F 00 00 00
30.000000 1 100 Rx d 8 7A 5E 8C 8C 00 00 00 00
30.000500 1 300 Rx d 8 C1 21 D0 06 8F 00 00 00
30.001000 1 200 Rx d 8 98 17 08 07 17 00 00 00
30.001500 1 400 Rx d 8 99 01 F0 00 2B FE 00 00
30.002000 1 500 Rx d 8 43 56 A3 85 00 00 00 00
30.050000 1 100 Rx d 8 7A 61 8C 8C 00 00 00 00
30.050500 1 300 Rx d 8 32 22 CF 06 8F 00 00 00
30.100000 1 100 Rx d 8 7A 64 8C 8C 00 00 00 00
30.100500 1 300 Rx d 8 A2 22 CE 06 8F 00 00 00
30.101000 1 200 Rx d 8 FC 17 0E 07 16 00 00 00
30.101500 1 400 Rx d 8 D9 01 F0 00 05 FE 00 00
30.150000 1 100 Rx d 8 7A 67 8C 8C 00 00 00 00
30.150500 1 300 Rx d 8 13 23 CC 06 8F 00 00 00
30.200000 1 100 Rx d 8 7A 6B 8C 8C 00 00 00 00
30.200500 1 300 Rx d 8 83 23 CB 06 90 00 00 00
30.201000 1 200 Rx d 8 60 18 14 07 15 00 00 00
30.201500 1 400 Rx d 8 18 02 F0 00 E2 FD 00 00
30.250000 1 100 Rx d 8 7A 6E 8C 8C 00 00 00 00
30.250500 1 300 Rx d 8 F4 23 C9 06 90 00 00 00
30.252000 1 500 Rx d 8 43 56 A0 85 00 00 00 00
30.300000 1 100 Rx d 8 7A 71 8C 8C 00 00 00 00
30.300500 1 300 Rx d 8 64 24 C7 06 90 00 00 00
30.301000 1 200 Rx d 8 C4 18 1A 07 14 00 00 00
30.301500 1 400 Rx d 8 54 02 F0 00 C2 FD 00 00
30.350000 1 100 Rx d 8 7A 74 8C 8C 00 00 00 00
30.350500 1 300 Rx d 8 D4 24 C6 06 90 00 00 00
30.400000 1 100 Rx d 8 7A 77 8C 8C 00 00 00 00
30.400500 1 300 Rx d 8 44 25 C4 06 90 00 00 00
30.401000 1 200 Rx d 8 28 19 20 07 13 00 00 00
30.401500 1 400 Rx d 8 8E 02 F0 00 A5 FD 00 00
30.450000 1 100 Rx d 8 79 7A 8C 8C 00 00 00 00
30.450500 1 300 Rx d 8 B4 25 C2 06 91 00 00 00
30.500000 1 100 Rx d 8 79 7D 8C 8C 00 00 00 00
30.500500 1 300 Rx d 8 24 26 C0 06 91 00 00 00
30.501000 1 200 Rx d 8 8C 19 26 07 12 00 00 00
30.501500 1 400 Rx d 8 C6 02 F0 00 8C FD 00 00
30.502000 1 500 Rx d 8 43 56 9D 85 00 00 00 00
30.550000 1 100 Rx d 8 79 80 8C 8C 00 00 00 00
30.550500 1 300 Rx d 8 93 26 BE 06 91 00 00 00
30.600000 1 100 Rx d 8 79 83 8C 8C 00 00 00 00
30.600500 1 300 Rx d 8 02 27 BC 06 91 00 00 00
30.601000 1 200 Rx d 8 F0 19 2C 07 12 00 00 00
30.601500 1 400 Rx d 8 FA 02 F0 00 76 FD 00 00
30.650000 1 100 Rx d 8 79 86 8C 8C 00 00 00 00
30.650500 1 300 Rx d 8 70 27 BA 06 92 00 00 00
30.700000 1 100 Rx d 8 79 89 8C 8C 00 00 00 00
30.700500 1 300 Rx d 8 DE 27 B8 06 92 00 00 00
30.701000 1 200 Rx d 8 53 1A 32 07 11 00 00 00
30.701500 1 400 Rx d 8 2B 03 F0 00 65 FD 00 00
30.750000 1 100 Rx d 8 79 8C 8C 8C 00 00 00 00
30.750500 1 300 Rx d 8 4B 28 B6 06 92 00 00 00
30.752000 1 500 Rx d 8 43 56 9A 84 00 00 00 00
30.800000 1 100 Rx d 8 79 8F 8C 8C 00 00 00 00
30.800500 1 300 Rx d 8 B8 28 B4 06 92 00 00 00
30.801000 1 200 Rx d 8 B6 1A 38 07 10 00 00 00
30.801500 1 400 Rx d 8 59 03 F0 00 57 FD 00 00
30.850000 1 100 Rx d 8 79 91 8C 8C 00 00 00 00
30.850500 1 300 Rx d 8 24 29 B2 06 93 00 00 00
30.900000 1 100 Rx d 8 79 94 8C 8C 00 00 00 00
30.900500 1 300 Rx d 8 90 29 B0 06 93 00 00 00
30.901000 1 200 Rx d 8 19 1B 3E 07 0F 00 00 00
30.901500 1 400 Rx d 8 83 03 F0 00 4D FD 00 00
30.950000 1 100 Rx d 8 79 97 8C 8C 00 00 00 00
30.950500 1 300 Rx d 8 FB 29 AE 06 93 00 00 00
31.000000 1 100 Rx d 8 78 99 8C 8C 00 00 00 00
31.000500 1 300 Rx d 8 65 2A AB 06 94 00 00 00
31.001000 1 200 Rx d 8 7C 1B 44 07 0E 00 00 00
31.001500 1 400 Rx d 8 AA 03 F0 00 47 FD 00 00
31.002000 1 500 Rx d 8 42 56 96 84 00 00 00 00
31.010000 1 7E0 Rx d 8 03 19 02 FF 00 00 00 00
31.014000 1 7E8 Rx d 8 07 59 02 FF 12 34 56 0D
31.050000 1 100 Rx d 8 78 9B 8C 8C 00 00 00 00
31.050500 1 300 Rx d 8 CE 2A A9 06 94 00 00 00
31.100000 1 100 Rx d 8 78 9E 8B 8C 00 00 00 00
31.100500 1 300 Rx d 8 36 2B A7 06 94 00 00 00
31.101000 1 200 Rx d 8 DE 1B 4A 07 0E 00 00 00
31.101500 1 400 Rx d 8 CD 03 F0 00 45 FD 00 00
31.150000 1 100 Rx d 8 78 A0 8B 8B 00 00 00 00
31.150500 1 300 Rx d 8 9E 2B A5 06 95 00 00 00
31.200000 1 100 Rx d 8 78 A2 8B 8B 00 00 00 00
31.200500 1 300 Rx d 8 04 2C A2 06 95 00 00 00
31.201000 1 200 Rx d 8 40 1C 50 07 0D 00 00 00
31.201500 1 400 Rx d 8 EC 03 F0 00 46 FD 00 00
31.250000 1 100 Rx d 8 78 A4 8B 8B 00 00 00 00
31.250500 1 300 Rx d 8 6A 2C A0 06 95 00 00 00
31.252000 1 500 Rx d 8 42 56 92 84 00 00 00 00
31.300000 1 100 Rx d 8 78 A6 8B 8B 00 00 00 00
31.300500 1 300 Rx d 8 CF 2C 9D 06 95 00 00 00
31.301000 1 200 Rx d 8 A2 1C 56 07 0C 00 00 00
31.301500 1 400 Rx d 8 06 04 F0 00 4C FD 00 00
31.350000 1 100 Rx d 8 78 A8 8B 8B 00 00 00 00
31.350500 1 300 Rx d 8 32 2D 9B 06 96 00 00 00
31.400000 1 100 Rx d 8 78 A9 8B 8B 00 00 00 00
31.400500 1 300 Rx d 8 94 2D 99 06 96 00 00 00
31.401000 1 200 Rx d 8 02 1D 5C 07 0C 00 00 00
31.401500 1 400 Rx d 8 1D 04 F0 00 56 FD 00 00
31.450000 1 100 Rx d 8 78 AB 8B 8B 00 00 00 00
31.450500 1 300 Rx d 8 F6 2D 96 06 96 00 00 00
31.500000 1 100 Rx d 8 77 AC 8B 8B 00 00 00 00
31.500500 1 300 Rx d 8 56 2E 94 06 97 00 00 00
31.501000 1 200 Rx d 8 63 1D 62 07 0B 00 00 00
31.501500 1 400 Rx d 8 2F 04 F0 00 64 FD 00 00
31.502000 1 500 Rx d 8 42 56 8E 84 00 00 00 00
31.550000 1 100 Rx d 8 77 AE 8B 8B 00 00 00 00
31.550500 1 300 Rx d 8 B4 2E 91 06 97 00 00 00
31.600000 1 100 Rx d 8 77 AF 8B 8B 00 00 00 00
31.600500 1 300 Rx d 8 12 2F 8F 06 97 00 00 00
31.601000 1 200 Rx d 8 C3 1D 68 07 0B 00 00 00
31.601500 1 400 Rx d 8 3D 04 F0 00 76 FD 00 00
31.650000 1 100 Rx d 8 77 B0 8B 8B 00 00 00 00
31.650500 1 300 Rx d 8 6E 2F 8C 06 98 00 00 00
31.700000 1 100 Rx d 8 77 B1 8B 8B 00 00 00 00
31.700500 1 300 Rx d 8 C9 2F 8A 06 98 00 00 00
31.701000 1 200 Rx d 8 22 1E 6E 07 0A 00 00 00
31.701500 1 400 Rx d 8 46 04 F0 00 8B FD 00 00
31.750000 1 100 Rx d 8 77 B2 8B 8B 00 00 00 00
31.750500 1 300 Rx d 8 22 30 87 06 99 00 00 00
31.752000 1 500 Rx d 8 42 55 8A 84 00 00 00 00
31.800000 1 100 Rx d 8 77 B2 8B 8B 00 00 00 00
31.800500 1 300 Rx d 8 7A 30 85 06 99 00 00 00
31.801000 1 200 Rx d 8 80 1E 74 07 0A 00 00 00
31.801500 1 400 Rx d 8 4B 04 F0 00 A4 FD 00 00
31.850000 1 100 Rx d 8 77 B3 8B 8B 00 00 00 00
31.850500 1 300 Rx d 8 D1 30 82 06 99 00 00 00
31.900000 1 100 Rx d 8 77 B3 8B 8B 00 00 00 00
31.900500 1 300 Rx d 8 26 31 7F 06 9A 00 00 00
31.901000 1 200 Rx d 8 DE 1E 7A 07 09 00 00 00
31.901500 1 400 Rx d 8 4B 04 F0 00 C1 FD 00 00
31.950000 1 100 Rx d 8 77 B4 8B 8B 00 00 00 00
31.950500 1 300 Rx d 8 79 31 7D 06 9A 00 00 00
32.000000 1 100 Rx d 8 77 B4 8B 8B 00 00 00 00
32.000500 1 300 Rx d 8 CB 31 7A 06 9A 00 00 00
32.001000 1 200 Rx d 8 3B 1F 80 07 09 00 00 00
32.001500 1 400 Rx d 8 47 04 F0 00 E0 FD 00 00
32.002000 1 500 Rx d 8 41 55 85 84 00 00 00 00
32.050000 1 100 Rx d 8 76 B4 8B 8A 00 00 00 00
32.050500 1 300 Rx d 8 1B 32 78 06 9B 00 00 00
32.100000 1 100 Rx d 8 76 B4 8B 8A 00 00 00 00
32.100500 1 300 Rx d 8 6A 32 75 06 9B 00 00 00
32.101000 1 200 Rx d 8 98 1F 86 07 09 00 00 00
32.101500 1 400 Rx d 8 3E 04 F0 00 03 FE 00 00
32.150000 1 100 Rx d 8 76 B4 8B 8A 00 00 00 00
32.150500 1 300 Rx d 8 B6 32 73 06 9C 00 00 00
32.200000 1 100 Rx d 8 76 B3 8B 8A 00 00 00 00
32.200500 1 300 Rx d 8 01 33 70 06 9C 00 00 00
32.201000 1 200 Rx d 8 F3 1F 8C 07 08 00 00 00
32.201500 1 400 Rx d 8 31 04 F0 00 29 FE 00 00
32.250000 1 100 Rx d 8 76 B3 8B 8A 00 00 00 00
32.250500 1 300 Rx d 8 4B 33 6D 06 9C 00 00 00
32.252000 1 500 Rx d 8 41 55 80 84 00 00 00 00
32.300000 1 100 Rx d 8 76 B2 8B 8A 00 00 00 00
32.300500 1 300 Rx d 8 92 33 6B 06 9D 00 00 00
32.301000 1 200 Rx d 8 4E 20 92 07 08 00 00 00
32.301500 1 400 Rx d 8 1F 04 F0 00 52 FE 00 00
32.350000 1 100 Rx d 8 76 B2 8B 8A 00 00 00 00
32.350500 1 300 Rx d 8 D8 33 68 06 9D 00 00 00
32.400000 1 100 Rx d 8 76 B1 8B 8A 00 00 00 00
32.400500 1 300 Rx d 8 1C 34 66 06 9E 00 00 00
32.401000 1 200 Rx d 8 A8 20 98 07 08 00 00 00
32.401500 1 400 Rx d 8 09 04 F0 00 7D FE 00 00
32.450000 1 100 Rx d 8 76 B0 8B 8A 00 00 00 00
32.450500 1 300 Rx d 8 5E 34 63 06 9E 00 00 00
32.500000 1 100 Rx d 8 76 AF 8B 8A 00 00 00 00
32.500500 1 300 Rx d 8 9E 34 61 06 9F 00 00 00
32.501000 1 200 Rx d 8 01 21 9E 07 07 00 00 00
32.501500 1 400 Rx d 8 EF 03 F0 00 AA FE 00 00
32.502000 1 500 Rx d 8 41 55 7B 83 00 00 00 00
32.550000 1 100 Rx d 8 76 AD 8B 8A 00 00 00 00
32.550500 1 300 Rx d 8 DC 34 5E 06 9F 00 00 00
32.600000 1 100 Rx d 8 75 AC 8A 8A 00 00 00 00
32.600500 1 300 Rx d 8 18 35 5C 06 9F 00 00 00
32.601000 1 200 Rx d 8 58 21 A4 07 07 00 00 00
32.601500 1 400 Rx d 8 D1 03 F0 00 D9 FE 00 00
32.650000 1 100 Rx d 8 75 AB 8A 8A 00 00 00 00
32.650500 1 300 Rx d 8 52 35 59 06 A0 00 00 00
32.700000 1 100 Rx d 8 75 A9 8A 8A 00 00 00 00
32.700500 1 300 Rx d 8 8B 35 57 06 A0 00 00 00
32.701000 1 200 Rx d 8 AF 21 AA 07 07 00 00 00
32.701500 1 400 Rx d 8 AE 03 F0 00 0A FF 00 00
32.750000 1 100 Rx d 8 75 A7 8A 8A 00 00 00 00
32.750500 1 300 Rx d 8 C1 35 54 06 A1 00 00 00
32.752000 1 500 Rx d 8 41 55 76 83 00 00 00 00
32.800000 1 100 Rx d 8 75 A5 8A 8A 00 00 00 00
32.800500 1 300 Rx d 8 F5 35 52 06 A1 00 00 00
32.801000 1 200 Rx d 8 05 22 B0 07 07 00 00 00
32.801500 1 400 Rx d 8 88 03 F0 00 3C FF 00 00
32.850000 1 100 Rx d 8 75 A4 8A 89 00 00 00 00
32.850500 1 300 Rx d 8 27 36 50 06 A2 00 00 00
32.900000 1 100 Rx d 8 75 A1 8A 89 00 00 00 00
32.900500 1 300 Rx d 8 57 36 4D 06 A2 00 00 00
32.901000 1 200 Rx d 8 5A 22 B6 07 07 00 00 00
32.901500 1 400 Rx d 8 5E 03 F0 00 70 FF 00 00
32.950000 1 100 Rx d 8 75 9F 8A 89 00 00 00 00
32.950500 1 300 Rx d 8 84 36 4B 06 A3 00 00 00
33.000000 1 100 Rx d 8 75 9D 8A 89 00 00 00 00
33.000500 1 300 Rx d 8 B0 36 49 06 A3 00 00 00
33.001000 1 200 Rx d 8 AD 22 BC 07 07 00 00 00
33.001500 1 400 Rx d 8 31 03 F0 00 A4 FF 00 00
33.002000 1 500 Rx d 8 41 55 70 83 00 00 00 00
33.050000 1 100 Rx d 8 75 9B 8A 89 00 00 00 00
33.050500 1 300 Rx d 8 D9 36 46 06 A4 00 00 00
33.100000 1 100 Rx d 8 75 98 8A 89 00 00 00 00
33.100500 1 300 Rx d 8 00 37 44 06 A4 00 00 00
33.101000 1 200 Rx d 8 00 23 C2 07 07 00 00 00
33.101500 1 400 Rx d 8 00 03 F0 00 D9 FF 00 00
33.150000 1 100 Rx d 8 74 96 8A 89 00 00 00 00
